;$FILEVERSION=1.1
;$STARTTIME=46166.7694298727
;
;   Start time: 2026/5/24 18:27:58.741.0
;   Generated by PCAN-View v6.0.0.1040
;
;   Message Number
;   |         Time Offset (ms)
;   |         |        Type
;   |         |        |        ID (hex)
;   |         |        |        |     Data Length
;   |         |        |        |     |   Data Bytes (hex) ...
;   |         |        |        |     |   |
;---+--   ----+----  --+--  ----+---  +  -+ -- -- -- -- -- -- --
     1)     16048.2  Rx     18DA03F1  8  02 10 02 00 00 00 00 00 
     2)     16165.1  Rx     18DA03F1  8  02 27 01 00 00 00 00 00 
     3)     16181.0  Rx     18DA03F1  8  06 27 02 D0 99 A1 7B 00 
     4)     16201.9  Rx     18DA03F1  8  10 0D 31 01 FE 00 00 08 
     5)     16215.9  Rx     18DA03F1  8  21 00 40 00 00 00 2C 90 
     6)     16233.9  Rx     18DA03F1  8  10 0B 34 00 44 08 00 40 
     7)     16249.0  Rx     18DA03F1  8  21 00 00 00 2C 90 00 00 
     8)     16279.1  Rx     18DA03F1  8  11 02 36 01 18 86 FF 1F 
     9)     16309.7  Rx     18DA03F1  8  21 95 C2 04 00 55 DA 04 
    10)     16320.0  Rx     18DA03F1  8  22 00 C5 CE 04 00 4D DA 
    11)     16330.0  Rx     18DA03F1  8  23 04 00 21 C5 04 00 45 
    12)     16340.0  Rx     18DA03F1  8  24 EA 04 00 00 00 00 00 
    13)     16349.9  Rx     18DA03F1  8  25 00 00 00 00 00 00 00 
    14)     16359.9  Rx     18DA03F1  8  26 00 00 00 00 00 89 DE 
    15)     16369.9  Rx     18DA03F1  8  27 04 00 4D CB 04 00 00 
    16)     16379.9  Rx     18DA03F1  8  28 00 00 00 4D DD 04 00 
    17)     16409.9  Rx     18DA03F1  8  29 A9 DE 04 00 CD CE 04 
    18)     16419.9  Rx     18DA03F1  8  2A 00 E1 CE 04 00 F5 CE 
    19)     16429.9  Rx     18DA03F1  8  2B 04 00 09 CF 04 00 1D 
    20)     16439.9  Rx     18DA03F1  8  2C CF 04 00 31 CF 04 00 
    21)     16450.0  Rx     18DA03F1  8  2D 45 CF 04 00 59 CF 04 
    22)     16460.0  Rx     18DA03F1  8  2E 00 6D CF 04 00 81 CF 
    23)     16470.0  Rx     18DA03F1  8  2F 04 00 95 CF 04 00 A9 
    24)     16480.0  Rx     18DA03F1  8  20 CF 04 00 BD CF 04 00 
    25)     16510.0  Rx     18DA03F1  8  21 D1 CF 04 00 E5 CF 04 
    26)     16520.0  Rx     18DA03F1  8  22 00 F9 CF 04 00 0D D0 
    27)     16529.9  Rx     18DA03F1  8  23 04 00 21 D0 04 00 35 
    28)     16540.0  Rx     18DA03F1  8  24 D0 04 00 49 D0 04 00 
    29)     16549.9  Rx     18DA03F1  8  25 5D D0 04 00 71 D0 04 
    30)     16559.9  Rx     18DA03F1  8  26 00 85 D0 04 00 99 D0 
    31)     16569.9  Rx     18DA03F1  8  27 04 00 AD D0 04 00 C1 
    32)     16579.9  Rx     18DA03F1  8  28 D0 04 00 D5 D0 04 00 
    33)     16609.9  Rx     18DA03F1  8  29 E9 D0 04 00 FD D0 04 
    34)     16619.9  Rx     18DA03F1  8  2A 00 11 D1 04 00 25 D1 
    35)     16629.9  Rx     18DA03F1  8  2B 04 00 39 D1 04 00 4D 
    36)     16639.9  Rx     18DA03F1  8  2C D1 04 00 65 D1 04 00 
    37)     16650.0  Rx     18DA03F1  8  2D 7D D1 04 00 95 D1 04 
    38)     16659.9  Rx     18DA03F1  8  2E 00 AD D1 04 00 C5 D1 
    39)     16669.9  Rx     18DA03F1  8  2F 04 00 DD D1 04 00 F5 
    40)     16679.9  Rx     18DA03F1  8  20 D1 04 00 0D D2 04 00 
    41)     16709.9  Rx     18DA03F1  8  21 25 D2 04 00 3D D2 04 
    42)     16719.9  Rx     18DA03F1  8  22 00 55 D2 04 00 6D D2 
    43)     16730.0  Rx     18DA03F1  8  23 04 00 85 D2 04 00 9D 
    44)     16739.9  Rx     18DA03F1  8  24 D2 04 00 B5 D2 04 00 
    45)     16800.1  Rx     18DA03F1  8  11 02 36 02 CD D2 04 00 
    46)     16815.0  Rx     18DA03F1  8  21 E5 D2 04 00 FD D2 04 
    47)     16825.0  Rx     18DA03F1  8  22 00 15 D3 04 00 2D D3 
    48)     16835.0  Rx     18DA03F1  8  23 04 00 45 D3 04 00 5D 
    49)     16845.0  Rx     18DA03F1  8  24 D3 04 00 75 D3 04 00 
    50)     16855.0  Rx     18DA03F1  8  25 8D D3 04 00 A5 D3 04 
    51)     16865.0  Rx     18DA03F1  8  26 00 BD D3 04 00 D5 D3 
    52)     16875.0  Rx     18DA03F1  8  27 04 00 ED D3 04 00 05 
    53)     16885.0  Rx     18DA03F1  8  28 D4 04 00 1D D4 04 00 
    54)     16915.0  Rx     18DA03F1  8  29 35 D4 04 00 4D D4 04 
    55)     16925.0  Rx     18DA03F1  8  2A 00 65 D4 04 00 7D D4 
    56)     16935.0  Rx     18DA03F1  8  2B 04 00 95 D4 04 00 AD 
    57)     16945.0  Rx     18DA03F1  8  2C D4 04 00 C5 D4 04 00 
    58)     16955.0  Rx     18DA03F1  8  2D DD D4 04 00 F5 D4 04 
    59)     16965.0  Rx     18DA03F1  8  2E 00 0D D5 04 00 25 D5 
    60)     16975.0  Rx     18DA03F1  8  2F 04 00 3D D5 04 00 55 
    61)     16985.0  Rx     18DA03F1  8  20 D5 04 00 6D D5 04 00 
    62)     17015.0  Rx     18DA03F1  8  21 85 D5 04 00 9D D5 04 
    63)     17025.0  Rx     18DA03F1  8  22 00 B5 D5 04 00 CD D5 
    64)     17035.0  Rx     18DA03F1  8  23 04 00 E5 D5 04 00 FD 
    65)     17045.0  Rx     18DA03F1  8  24 D5 04 00 15 D6 04 00 
    66)     17055.0  Rx     18DA03F1  8  25 2D D6 04 00 45 D6 04 
    67)     17065.0  Rx     18DA03F1  8  26 00 5D D6 04 00 75 D6 
    68)     17075.0  Rx     18DA03F1  8  27 04 00 8D D6 04 00 A5 
    69)     17085.0  Rx     18DA03F1  8  28 D6 04 00 BD D6 04 00 
    70)     17115.0  Rx     18DA03F1  8  29 D5 D6 04 00 ED D6 04 
    71)     17125.0  Rx     18DA03F1  8  2A 00 05 D7 04 00 1D D7 
    72)     17135.0  Rx     18DA03F1  8  2B 04 00 35 D7 04 00 4D 
    73)     17145.0  Rx     18DA03F1  8  2C D7 04 00 65 D7 04 00 
    74)     17155.0  Rx     18DA03F1  8  2D 7D D7 04 00 95 D7 04 
    75)     17165.0  Rx     18DA03F1  8  2E 00 AD D7 04 00 C5 D7 
    76)     17175.0  Rx     18DA03F1  8  2F 04 00 DD D7 04 00 F5 
    77)     17185.1  Rx     18DA03F1  8  20 D7 04 00 0D D8 04 00 
    78)     17215.0  Rx     18DA03F1  8  21 25 D8 04 00 3D D8 04 
    79)     17225.0  Rx     18DA03F1  8  22 00 55 D8 04 00 6D D8 
    80)     17235.0  Rx     18DA03F1  8  23 04 00 85 D8 04 00 9D 
    81)     17245.1  Rx     18DA03F1  8  24 D8 04 00 B5 D8 04 00 
    82)     17285.1  Rx     18DA03F1  8  11 02 36 03 CD D8 04 00 
    83)     17300.1  Rx     18DA03F1  8  21 E5 D8 04 00 FD D8 04 
    84)     17310.0  Rx     18DA03F1  8  22 00 15 D9 04 00 2D D9 
    85)     17320.1  Rx     18DA03F1  8  23 04 00 45 D9 04 00 5D 
    86)     17330.1  Rx     18DA03F1  8  24 D9 04 00 75 D9 04 00 
    87)     17340.0  Rx     18DA03F1  8  25 8D D9 04 00 A5 D9 04 
    88)     17349.9  Rx     18DA03F1  8  26 00 BD D9 04 00 D5 D9 
    89)     17359.9  Rx     18DA03F1  8  27 04 00 ED D9 04 00 05 
    90)     17369.9  Rx     18DA03F1  8  28 DA 04 00 1D DA 04 00 
    91)     17400.0  Rx     18DA03F1  8  29 35 DA 04 00 D7 C2 04 
    92)     17410.0  Rx     18DA03F1  8  2A 00 D7 C2 04 00 D7 C2 
    93)     17419.9  Rx     18DA03F1  8  2B 04 00 D7 C2 04 00 D7 
    94)     17430.0  Rx     18DA03F1  8  2C C2 04 00 D7 C2 04 00 
    95)     17440.0  Rx     18DA03F1  8  2D D7 C2 04 00 D7 C2 04 
    96)     17450.0  Rx     18DA03F1  8  2E 00 D7 C2 04 00 D7 C2 
    97)     17460.0  Rx     18DA03F1  8  2F 04 00 D7 C2 04 00 D7 
    98)     17470.0  Rx     18DA03F1  8  20 C2 04 00 D7 C2 04 00 
    99)     17500.0  Rx     18DA03F1  8  21 D7 C2 04 00 D7 C2 04 
   100)     17510.0  Rx     18DA03F1  8  22 00 D7 C2 04 00 DF F8 
   101)     17520.0  Rx     18DA03F1  8  23 0C D0 00 F0 82 F8 00 
   102)     17530.0  Rx     18DA03F1  8  24 48 00 47 91 EB 04 00 
   103)     17539.9  Rx     18DA03F1  8  25 18 86 FF 1F 10 48 4F 
   104)     17550.0  Rx     18DA03F1  8  26 F0 77 01 01 60 0F 48 
   105)     17560.0  Rx     18DA03F1  8  27 4F F0 77 01 01 60 0E 
   106)     17569.9  Rx     18DA03F1  8  28 48 4F F4 88 51 01 60 
   107)     17600.0  Rx     18DA03F1  8  29 0A 48 4F F0 76 01 01 
   108)     17610.0  Rx     18DA03F1  8  2A 60 09 48 4F F0 76 01 
   109)     17619.9  Rx     18DA03F1  8  2B 01 60 09 48 80 47 09 
   110)     17630.0  Rx     18DA03F1  8  2C 48 00 47 FE E7 FE E7 
   111)     17640.0  Rx     18DA03F1  8  2D FE E7 FE E7 FE E7 FE 
   112)     17650.0  Rx     18DA03F1  8  2E E7 FE E7 FE E7 FE E7 
   113)     17660.0  Rx     18DA03F1  8  2F FE E7 04 08 05 40 0C 
   114)     17670.0  Rx     18DA03F1  8  20 08 05 40 00 08 05 40 
   115)     17700.0  Rx     18DA03F1  8  21 DD DF 04 00 81 C2 04 
   116)     17710.0  Rx     18DA03F1  8  22 00 2D E9 F0 5F 05 46 
   117)     17720.0  Rx     18DA03F1  8  23 00 20 92 46 9B 46 88 
   118)     17730.0  Rx     18DA03F1  8  24 46 06 46 81 46 40 24 
   119)     17773.1  Rx     18DA03F1  8  11 02 36 04 1B E0 28 46 
   120)     17790.0  Rx     18DA03F1  8  21 41 46 47 46 22 46 00 
   121)     17800.0  Rx     18DA03F1  8  22 F0 2F F8 53 46 5A 46 
   122)     17810.0  Rx     18DA03F1  8  23 C0 1A 91 41 10 D3 11 
   123)     17820.0  Rx     18DA03F1  8  24 46 18 46 22 46 00 F0 
   124)     17830.0  Rx     18DA03F1  8  25 16 F8 2D 1A 67 EB 01 
   125)     17840.0  Rx     18DA03F1  8  26 08 4F 46 22 46 01 20 
   126)     17850.0  Rx     18DA03F1  8  27 00 21 00 F0 0D F8 17 
   127)     17859.9  Rx     18DA03F1  8  28 EB 00 09 4E 41 20 1E 
   128)     17889.9  Rx     18DA03F1  8  29 A4 F1 01 04 DF DC 48 
   129)     17899.9  Rx     18DA03F1  8  2A 46 31 46 2A 46 43 46 
   130)     17909.9  Rx     18DA03F1  8  2B BD E8 F0 9F 20 2A 04 
   131)     17919.9  Rx     18DA03F1  8  2C DB 20 3A 00 FA 02 F1 
   132)     17930.0  Rx     18DA03F1  8  2D 00 20 70 47 91 40 C2 
   133)     17939.9  Rx     18DA03F1  8  2E F1 20 03 20 FA 03 F3 
   134)     17950.0  Rx     18DA03F1  8  2F 19 43 90 40 70 47 20 
   135)     17960.0  Rx     18DA03F1  8  20 2A 04 DB 20 3A 21 FA 
   136)     17990.0  Rx     18DA03F1  8  21 02 F0 00 21 70 47 21 
   137)     18000.0  Rx     18DA03F1  8  22 FA 02 F3 D0 40 C2 F1 
   138)     18010.0  Rx     18DA03F1  8  23 20 02 91 40 08 43 19 
   139)     18020.0  Rx     18DA03F1  8  24 46 70 47 06 4C 07 4D 
   140)     18030.0  Rx     18DA03F1  8  25 06 E0 E0 68 40 F0 01 
   141)     18040.0  Rx     18DA03F1  8  26 03 94 E8 07 00 98 47 
   142)     18050.0  Rx     18DA03F1  8  27 10 34 AC 42 F6 D3 FF 
   143)     18060.0  Rx     18DA03F1  8  28 F7 70 FF 58 EC 04 00 
   144)     18090.0  Rx     18DA03F1  8  29 78 EC 04 00 86 B0 00 
   145)     18100.0  Rx     18DA03F1  8  2A BF 00 20 02 90 03 90 
   146)     18110.0  Rx     18DA03F1  8  2B 04 90 05 90 00 BF 02 
   147)     18120.0  Rx     18DA03F1  8  2C A8 01 F0 15 FD 01 F0 
   148)     18130.0  Rx     18DA03F1  8  2D EB FC 00 BF 00 20 00 
   149)     18140.0  Rx     18DA03F1  8  2E 90 01 90 00 BF 01 20 
   150)     18150.0  Rx     18DA03F1  8  2F 8D F8 00 00 6A 46 40 
   151)     18160.0  Rx     18DA03F1  8  20 21 01 F0 3D FB 00 BF 
   152)     18190.0  Rx     18DA03F1  8  21 0D 4C 00 BF 01 F0 62 
   153)     18200.0  Rx     18DA03F1  8  22 FD 4F F4 7A 70 02 F0 
   154)     18210.0  Rx     18DA03F1  8  23 D2 FB 62 B6 10 E0 09 
   155)     18220.0  Rx     18DA03F1  8  24 48 00 78 20 B1 00 20 
   156)     18262.0  Rx     18DA03F1  8  11 02 36 05 07 49 08 70 
   157)     18278.0  Rx     18DA03F1  8  21 00 F0 10 F8 65 68 0D 
   158)     18288.0  Rx     18DA03F1  8  22 B9 01 F0 40 FD 04 48 
   159)     18298.0  Rx     18DA03F1  8  23 00 68 08 B1 00 F0 07 
   160)     18308.0  Rx     18DA03F1  8  24 F8 ED E7 00 6F 02 20 
   161)     18318.0  Rx     18DA03F1  8  25 10 80 FF 1F 14 80 FF 
   162)     18328.0  Rx     18DA03F1  8  26 1F 4F F4 F8 20 01 F0 
   163)     18338.0  Rx     18DA03F1  8  27 92 FC 04 46 B4 F1 5A 
   164)     18348.0  Rx     18DA03F1  8  28 3F 02 D1 4F F0 A5 30 
   165)     18377.9  Rx     18DA03F1  8  29 01 E0 4F F0 5A 30 05 
   166)     18388.0  Rx     18DA03F1  8  2A 46 00 F0 34 FD 01 20 
   167)     18398.0  Rx     18DA03F1  8  2B 00 F0 AF FB 00 BF 4F 
   168)     18407.9  Rx     18DA03F1  8  2C F4 80 70 00 F0 D4 FB 
   169)     18417.9  Rx     18DA03F1  8  2D 01 28 F9 D1 4F F4 F8 
   170)     18428.0  Rx     18DA03F1  8  2E 20 00 F0 0E FC 29 46 
   171)     18438.0  Rx     18DA03F1  8  2F 4F F4 F8 20 00 F0 B3 
   172)     18447.9  Rx     18DA03F1  8  20 FC 00 F0 FB FB 00 BF 
   173)     18477.9  Rx     18DA03F1  8  21 00 BF 00 BF 00 BF 00 
   174)     18487.9  Rx     18DA03F1  8  22 BF BF F3 4F 8F 00 BF 
   175)     18498.0  Rx     18DA03F1  8  23 00 BF 00 BF 0A 48 00 
   176)     18507.9  Rx     18DA03F1  8  24 68 00 F4 E0 60 09 49 
   177)     18518.0  Rx     18DA03F1  8  25 08 43 00 1D 06 49 08 
   178)     18527.9  Rx     18DA03F1  8  26 60 00 BF 00 BF 00 BF 
   179)     18537.9  Rx     18DA03F1  8  27 BF F3 4F 8F 00 BF 00 
   180)     18548.0  Rx     18DA03F1  8  28 BF 00 BF 00 BF 00 BF 
   181)     18578.0  Rx     18DA03F1  8  29 FD E7 00 00 0C ED 00 
   182)     18588.0  Rx     18DA03F1  8  2A E0 00 00 FA 05 2D E9 
   183)     18597.9  Rx     18DA03F1  8  2B F0 47 05 46 0E 46 14 
   184)     18608.0  Rx     18DA03F1  8  2C 46 00 27 00 21 28 46 
   185)     18617.9  Rx     18DA03F1  8  2D 02 F0 F0 F9 80 46 01 
   186)     18627.9  Rx     18DA03F1  8  2E 21 28 46 02 F0 EB F9 
   187)     18638.0  Rx     18DA03F1  8  2F 81 46 01 2C 07 D1 B8 
   188)     18647.9  Rx     18DA03F1  8  20 F1 01 0F 02 D0 B9 F1 
   189)     18677.9  Rx     18DA03F1  8  21 01 0F 08 D1 01 27 06 
   190)     18687.9  Rx     18DA03F1  8  22 E0 31 46 28 46 02 F0 
   191)     18697.9  Rx     18DA03F1  8  23 DC F9 01 28 00 D1 01 
   192)     18707.9  Rx     18DA03F1  8  24 27 01 2F 0B D1 00 20 
   193)     18750.1  Rx     18DA03F1  8  11 02 36 06 01 E0 00 BF 
   194)     18765.0  Rx     18DA03F1  8  21 40 1C 05 49 09 68 42 
   195)     18775.0  Rx     18DA03F1  8  22 F2 10 72 B1 FB F2 F1 
   196)     18785.0  Rx     18DA03F1  8  23 81 42 F5 D8 BD E8 F0 
   197)     18795.0  Rx     18DA03F1  8  24 87 00 00 00 80 FF 1F 
   198)     18805.0  Rx     18DA03F1  8  25 10 B5 AF F3 00 80 10 
   199)     18815.0  Rx     18DA03F1  8  26 BD 70 B5 00 21 00 22 
   200)     18825.0  Rx     18DA03F1  8  27 00 24 00 23 00 28 7E 
   201)     18835.0  Rx     18DA03F1  8  28 D0 43 4D 2D 78 05 F0 
   202)     18865.0  Rx     18DA03F1  8  29 07 05 05 2D 15 D2 DF 
   203)     18875.0  Rx     18DA03F1  8  2A E8 05 F0 03 06 09 0D 
   204)     18885.0  Rx     18DA03F1  8  2B 10 00 3E 4D 05 60 3B 
   205)     18895.0  Rx     18DA03F1  8  2C E0 3E 4D 05 60 38 E0 
   206)     18905.0  Rx     18DA03F1  8  2D 4F F4 00 45 05 60 34 
   207)     18915.0  Rx     18DA03F1  8  2E E0 3A 4D 05 60 31 E0 
   208)     18925.0  Rx     18DA03F1  8  2F 4F F4 00 45 05 60 2D 
   209)     18935.0  Rx     18DA03F1  8  20 E0 35 4D DA 35 2D 68 
   210)     18964.9  Rx     18DA03F1  8  21 C5 F3 C0 13 32 4D 26 
   211)     18975.0  Rx     18DA03F1  8  22 3D D5 F8 00 51 2A 0F 
   212)     18985.0  Rx     18DA03F1  8  23 30 4D DA 35 2D 68 C5 
   213)     18994.9  Rx     18DA03F1  8  24 F3 08 21 2D 4D 26 3D 
   214)     19005.0  Rx     18DA03F1  8  25 D5 F8 00 51 05 F0 1F 
   215)     19015.0  Rx     18DA03F1  8  26 04 53 B9 65 1C 2B 4E 
   216)     19024.9  Rx     18DA03F1  8  27 B6 FB F5 F5 4E 1C 75 
   217)     19035.0  Rx     18DA03F1  8  28 43 56 1C B5 FB F6 F5 
   218)     19065.0  Rx     18DA03F1  8  29 05 60 0B E0 01 2B 09 
   219)     19074.9  Rx     18DA03F1  8  2A D1 65 1C 24 4E B6 FB 
   220)     19084.9  Rx     18DA03F1  8  2B F5 F5 4E 1C 75 43 56 
   221)     19094.9  Rx     18DA03F1  8  2C 1C B5 FB F6 F5 05 60 
   222)     19105.0  Rx     18DA03F1  8  2D 00 BF 00 BF 1D 4E 26 
   223)     19114.9  Rx     18DA03F1  8  2E 3E 05 68 36 6A C6 F3 
   224)     19124.9  Rx     18DA03F1  8  2F 02 66 F5 40 45 60 19 
   225)     19135.0  Rx     18DA03F1  8  20 4E 26 3E 05 68 36 6A 
   226)     19165.0  Rx     18DA03F1  8  21 C6 F3 02 56 F5 40 85 
   227)     19175.0  Rx     18DA03F1  8  22 60 15 4E 26 3E 05 68 
   228)     19185.0  Rx     18DA03F1  8  23 36 6A 06 F0 07 06 F5 
   229)     19195.0  Rx     18DA03F1  8  24 40 C5 60 11 4E 26 3E 
   230)     19239.1  Rx     18DA03F1  8  11 02 36 07 05 68 36 6A 
   231)     19255.0  Rx     18DA03F1  8  21 C6 F3 02 16 F5 40 05 
   232)     19264.9  Rx     18DA03F1  8  22 61 0D 4E 26 3E 05 68 
   233)     19275.0  Rx     18DA03F1  8  23 36 6A C6 F3 02 26 F5 
   234)     19284.9  Rx     18DA03F1  8  24 40 45 61 09 4E 26 3E 
   235)     19295.0  Rx     18DA03F1  8  25 05 68 36 6A C6 F3 02 
   236)     19305.0  Rx     18DA03F1  8  26 36 F5 40 85 61 05 4E 
   237)     19315.0  Rx     18DA03F1  8  27 26 3E 05 68 00 E0 04 
   238)     19324.9  Rx     18DA03F1  8  28 E0 36 6A C6 F3 02 46 
   239)     19355.0  Rx     18DA03F1  8  29 F5 40 C5 61 70 BD 00 
   240)     19364.9  Rx     18DA03F1  8  2A 00 26 40 05 40 00 24 
   241)     19375.0  Rx     18DA03F1  8  2B F4 00 00 12 7A 00 70 
   242)     19385.0  Rx     18DA03F1  8  2C B5 04 46 00 BF 3C B1 
   243)     19394.9  Rx     18DA03F1  8  2D 01 2C 05 D0 02 2C 03 
   244)     19404.9  Rx     18DA03F1  8  2E D0 03 2C 01 D0 04 2C 
   245)     19415.0  Rx     18DA03F1  8  2F 00 D1 04 E0 40 F2 3F 
   246)     19424.9  Rx     18DA03F1  8  20 61 1E A0 00 F0 6A FA 
   247)     19454.9  Rx     18DA03F1  8  21 00 BF 34 B1 01 2C 0D 
   248)     19465.0  Rx     18DA03F1  8  22 D0 02 2C 14 D0 03 2C 
   249)     19475.0  Rx     18DA03F1  8  23 24 D1 1A E0 20 48 00 
   250)     19485.0  Rx     18DA03F1  8  24 78 00 F0 01 00 80 F0 
   251)     19495.0  Rx     18DA03F1  8  25 01 00 80 F0 01 05 24 
   252)     19505.0  Rx     18DA03F1  8  26 E0 1B 48 00 78 C0 F3 
   253)     19515.0  Rx     18DA03F1  8  27 C0 00 80 F0 01 00 80 
   254)     19525.0  Rx     18DA03F1  8  28 F0 01 05 1B E0 17 48 
   255)     19554.9  Rx     18DA03F1  8  29 00 78 C0 F3 40 10 80 
   256)     19565.0  Rx     18DA03F1  8  2A F0 01 00 80 F0 01 05 
   257)     19574.9  Rx     18DA03F1  8  2B 12 E0 12 48 00 78 C0 
   258)     19584.9  Rx     18DA03F1  8  2C F3 80 10 80 F0 01 00 
   259)     19595.0  Rx     18DA03F1  8  2D 80 F0 01 05 09 E0 0E 
   260)     19604.9  Rx     18DA03F1  8  2E 48 40 1D 00 78 00 F0 
   261)     19615.0  Rx     18DA03F1  8  2F 01 00 80 F0 01 00 80 
   262)     19624.9  Rx     18DA03F1  8  20 F0 01 05 00 BF 00 BF 
   263)     19654.9  Rx     18DA03F1  8  21 28 46 70 BD 2E 2E 5C 
   264)     19664.9  Rx     18DA03F1  8  22 2E 2E 5C 64 72 69 76 
   265)     19674.9  Rx     18DA03F1  8  23 65 72 5C 73 72 63 5C 
   266)     19684.9  Rx     18DA03F1  8  24 68 63 33 32 66 34 36 
   267)     19729.0  Rx     18DA03F1  8  11 02 36 08 30 5F 63 6C 
   268)     19746.0  Rx     18DA03F1  8  21 6B 2E 63 00 3C 40 05 
   269)     19756.0  Rx     18DA03F1  8  22 40 38 B5 04 46 00 20 
   270)     19765.9  Rx     18DA03F1  8  23 00 90 00 25 31 48 00 
   271)     19775.9  Rx     18DA03F1  8  24 88 4A F2 01 51 08 43 
   272)     19786.0  Rx     18DA03F1  8  25 2F 49 A1 F8 FE 03 00 
   273)     19795.9  Rx     18DA03F1  8  26 BF 0C B1 01 2C 00 D1 
   274)     19806.0  Rx     18DA03F1  8  27 04 E0 40 F2 25 21 2B 
   275)     19816.0  Rx     18DA03F1  8  28 A0 00 F0 07 FA 00 BF 
   276)     19845.9  Rx     18DA03F1  8  29 44 BB 28 48 26 30 00 
   277)     19856.0  Rx     18DA03F1  8  2A 78 00 F0 07 00 08 B9 
   278)     19865.9  Rx     18DA03F1  8  2B 01 25 39 E0 2D 48 00 
   279)     19875.9  Rx     18DA03F1  8  2C 68 C0 F3 C0 10 88 B1 
   280)     19886.0  Rx     18DA03F1  8  2D 21 48 2A 30 00 78 00 
   281)     19895.9  Rx     18DA03F1  8  2E F0 01 00 08 B9 01 25 
   282)     19905.9  Rx     18DA03F1  8  2F 2C E0 1D 48 36 30 00 
   283)     19915.9  Rx     18DA03F1  8  20 78 20 F0 01 00 40 1C 
   284)     19946.0  Rx     18DA03F1  8  21 1A 49 81 F8 36 00 22 
   285)     19956.0  Rx     18DA03F1  8  22 E0 18 48 36 30 00 78 
   286)     19966.0  Rx     18DA03F1  8  23 20 F0 01 00 40 1C 15 
   287)     19976.0  Rx     18DA03F1  8  24 49 81 F8 36 00 18 E0 
   288)     19986.0  Rx     18DA03F1  8  25 13 48 36 30 00 78 20 
   289)     19996.0  Rx     18DA03F1  8  26 F0 01 00 11 49 81 F8 
   290)     20006.0  Rx     18DA03F1  8  27 36 00 09 25 09 E0 00 
   291)     20016.0  Rx     18DA03F1  8  28 20 FF F7 53 FF 01 28 
   292)     20046.0  Rx     18DA03F1  8  29 01 D1 00 25 06 E0 00 
   293)     20056.0  Rx     18DA03F1  8  2A 98 40 1C 00 90 00 98 
   294)     20066.0  Rx     18DA03F1  8  2B B0 F5 80 5F F1 D3 00 
   295)     20076.0  Rx     18DA03F1  8  2C BF 06 48 00 88 4F F6 
   296)     20086.0  Rx     18DA03F1  8  2D FE 71 08 40 40 F4 25 
   297)     20095.9  Rx     18DA03F1  8  2E 40 03 49 A1 F8 FE 03 
   298)     20106.0  Rx     18DA03F1  8  2F 28 46 38 BD 00 00 FE 
   299)     20116.0  Rx     18DA03F1  8  20 43 05 40 00 40 05 40 
   300)     20145.9  Rx     18DA03F1  8  21 2E 2E 5C 2E 2E 5C 64 
   301)     20155.9  Rx     18DA03F1  8  22 72 69 76 65 72 5C 73 
   302)     20165.9  Rx     18DA03F1  8  23 72 63 5C 68 63 33 32 
   303)     20175.9  Rx     18DA03F1  8  24 66 34 36 30 5F 63 6C 
   304)     20220.0  Rx     18DA03F1  8  11 02 36 09 6B 2E 63 00 
   305)     20236.0  Rx     18DA03F1  8  21 00 41 05 40 10 B5 04 
   306)     20245.9  Rx     18DA03F1  8  22 46 00 BF 0C B1 01 2C 
   307)     20255.9  Rx     18DA03F1  8  23 00 D1 04 E0 40 F2 E5 
   308)     20265.9  Rx     18DA03F1  8  24 21 0F A0 00 F0 94 F9 
   309)     20275.9  Rx     18DA03F1  8  25 00 BF 15 48 00 88 4A 
   310)     20285.9  Rx     18DA03F1  8  26 F2 01 51 08 43 13 49 
   311)     20295.9  Rx     18DA03F1  8  27 A1 F8 FE 03 08 46 D0 
   312)     20305.9  Rx     18DA03F1  8  28 F8 00 01 64 F3 C7 10 
   313)     20335.9  Rx     18DA03F1  8  29 C1 F8 00 01 08 46 B0 
   314)     20345.9  Rx     18DA03F1  8  2A F8 FE 03 4F F6 FE 71 
   315)     20356.0  Rx     18DA03F1  8  2B 08 40 40 F4 25 40 0A 
   316)     20365.9  Rx     18DA03F1  8  2C 49 A1 F8 FE 03 10 BD 
   317)     20375.9  Rx     18DA03F1  8  2D 2E 2E 5C 2E 2E 5C 64 
   318)     20386.0  Rx     18DA03F1  8  2E 72 69 76 65 72 5C 73 
   319)     20395.9  Rx     18DA03F1  8  2F 72 63 5C 68 63 33 32 
   320)     20406.0  Rx     18DA03F1  8  20 66 34 36 30 5F 63 6C 
   321)     20436.0  Rx     18DA03F1  8  21 6B 2E 63 00 FE 43 05 
   322)     20445.9  Rx     18DA03F1  8  22 40 00 40 05 40 10 B5 
   323)     20456.0  Rx     18DA03F1  8  23 86 B0 04 46 00 20 05 
   324)     20465.9  Rx     18DA03F1  8  24 90 39 48 00 68 04 90 
   325)     20475.9  Rx     18DA03F1  8  25 37 48 40 68 03 90 36 
   326)     20486.0  Rx     18DA03F1  8  26 48 80 68 02 90 34 48 
   327)     20495.9  Rx     18DA03F1  8  27 C0 68 01 90 00 BF 1C 
   328)     20505.9  Rx     18DA03F1  8  28 B1 01 2C 02 DB 05 2C 
   329)     20536.0  Rx     18DA03F1  8  29 00 DC 04 E0 4F F4 77 
   330)     20546.0  Rx     18DA03F1  8  2A 71 2F A0 00 F0 47 F9 
   331)     20556.0  Rx     18DA03F1  8  2B 00 BF 35 48 2C 49 08 
   332)     20566.0  Rx     18DA03F1  8  2C 61 35 48 00 78 00 F0 
   333)     20576.0  Rx     18DA03F1  8  2D 07 00 05 28 01 D0 05 
   334)     20586.0  Rx     18DA03F1  8  2E 2C 0E D1 32 48 26 49 
   335)     20596.0  Rx     18DA03F1  8  2F 08 60 C0 12 48 60 88 
   336)     20606.0  Rx     18DA03F1  8  20 60 C8 60 00 BF 05 98 
   337)     20636.0  Rx     18DA03F1  8  21 40 1C 05 90 05 98 B0 
   338)     20645.9  Rx     18DA03F1  8  22 F5 00 7F F8 D3 2B 48 
   339)     20656.0  Rx     18DA03F1  8  23 00 88 4A F2 01 51 08 
   340)     20665.9  Rx     18DA03F1  8  24 43 27 49 26 39 A1 F8 
   341)     20709.1  Rx     18DA03F1  8  11 02 36 0A FE 03 08 46 
   342)     20725.0  Rx     18DA03F1  8  21 90 F8 26 00 64 F3 02 
   343)     20735.0  Rx     18DA03F1  8  22 00 81 F8 26 00 08 46 
   344)     20745.0  Rx     18DA03F1  8  23 B0 F8 FE 03 4F F6 FE 
   345)     20755.0  Rx     18DA03F1  8  24 71 08 40 40 F4 25 40 
   346)     20765.0  Rx     18DA03F1  8  25 1D 49 26 39 A1 F8 FE 
   347)     20775.0  Rx     18DA03F1  8  26 03 00 20 05 90 00 BF 
   348)     20785.0  Rx     18DA03F1  8  27 05 98 40 1C 05 90 05 
   349)     20795.0  Rx     18DA03F1  8  28 98 B0 F5 00 7F F8 D3 
   350)     20825.0  Rx     18DA03F1  8  29 0C 49 04 98 08 60 03 
   351)     20835.0  Rx     18DA03F1  8  2A 98 48 60 02 98 88 60 
   352)     20844.9  Rx     18DA03F1  8  2B 01 98 C8 60 11 48 40 
   353)     20855.0  Rx     18DA03F1  8  2C 1E 08 61 00 20 05 90 
   354)     20865.0  Rx     18DA03F1  8  2D 00 BF 05 98 40 1C 05 
   355)     20874.9  Rx     18DA03F1  8  2E 90 05 98 B0 F5 00 7F 
   356)     20885.0  Rx     18DA03F1  8  2F F8 D3 01 F0 D6 FA 06 
   357)     20895.0  Rx     18DA03F1  8  20 B0 10 BD 00 80 04 40 
   358)     20925.0  Rx     18DA03F1  8  21 2E 2E 5C 2E 2E 5C 64 
   359)     20934.9  Rx     18DA03F1  8  22 72 69 76 65 72 5C 73 
   360)     20945.0  Rx     18DA03F1  8  23 72 63 5C 68 63 33 32 
   361)     20955.0  Rx     18DA03F1  8  24 66 34 36 30 5F 63 6C 
   362)     20965.0  Rx     18DA03F1  8  25 6B 2E 63 00 01 00 A5 
   363)     20975.0  Rx     18DA03F1  8  26 A5 26 40 05 40 EE FA 
   364)     20985.0  Rx     18DA03F1  8  27 FF FF FE 43 05 40 10 
   365)     20995.0  Rx     18DA03F1  8  28 B5 86 B0 04 46 00 20 
   366)     21025.0  Rx     18DA03F1  8  29 05 90 59 48 00 68 04 
   367)     21035.0  Rx     18DA03F1  8  2A 90 57 48 40 68 03 90 
   368)     21045.0  Rx     18DA03F1  8  2B 56 48 80 68 02 90 54 
   369)     21055.0  Rx     18DA03F1  8  2C 48 C0 68 01 90 54 48 
   370)     21065.0  Rx     18DA03F1  8  2D 52 49 08 61 00 2C 7D 
   371)     21075.0  Rx     18DA03F1  8  2E D0 00 BF 20 78 E1 78 
   372)     21085.0  Rx     18DA03F1  8  2F 88 42 32 DC 20 78 61 
   373)     21095.0  Rx     18DA03F1  8  20 79 88 42 2E DC 20 78 
   374)     21124.9  Rx     18DA03F1  8  21 A1 79 88 42 2A DC A0 
   375)     21135.0  Rx     18DA03F1  8  22 78 E1 78 88 42 26 DC 
   376)     21144.9  Rx     18DA03F1  8  23 A0 78 61 79 88 42 22 
   377)     21154.9  Rx     18DA03F1  8  24 DC 20 79 A1 79 40 1A 
   378)     21199.0  Rx     18DA03F1  8  11 02 36 0B 03 28 1C D0 
   379)     21215.0  Rx     18DA03F1  8  21 20 79 A1 79 40 1A 02 
   380)     21224.9  Rx     18DA03F1  8  22 28 17 D0 20 79 A1 79 
   381)     21235.0  Rx     18DA03F1  8  23 40 1A 01 28 12 D0 20 
   382)     21245.0  Rx     18DA03F1  8  24 79 A1 79 40 1A 0E D0 
   383)     21255.0  Rx     18DA03F1  8  25 A0 79 21 79 40 1A 01 
   384)     21264.9  Rx     18DA03F1  8  26 28 09 D0 A0 79 21 79 
   385)     21275.0  Rx     18DA03F1  8  27 40 1A 02 28 04 D0 A0 
   386)     21285.0  Rx     18DA03F1  8  28 79 21 79 40 1A 03 28 
   387)     21315.0  Rx     18DA03F1  8  29 00 D1 04 E0 40 F2 3B 
   388)     21325.0  Rx     18DA03F1  8  2A 41 35 A0 00 F0 7F F8 
   389)     21335.0  Rx     18DA03F1  8  2B 00 BF 3B 48 00 78 00 
   390)     21345.0  Rx     18DA03F1  8  2C F0 07 00 05 28 0E D1 
   391)     21355.0  Rx     18DA03F1  8  2D 39 48 2E 49 08 60 C0 
   392)     21365.0  Rx     18DA03F1  8  2E 12 48 60 88 60 C8 60 
   393)     21375.0  Rx     18DA03F1  8  2F 00 BF 05 98 40 1C 05 
   394)     21385.0  Rx     18DA03F1  8  20 90 05 98 B0 F5 00 7F 
   395)     21415.0  Rx     18DA03F1  8  21 F8 D3 33 48 00 88 4A 
   396)     21425.0  Rx     18DA03F1  8  22 F2 01 51 08 43 30 49 
   397)     21435.0  Rx     18DA03F1  8  23 08 80 A0 78 E1 78 40 
   398)     21444.9  Rx     18DA03F1  8  24 EA 01 10 21 79 40 EA 
   399)     21455.0  Rx     18DA03F1  8  25 01 20 61 79 40 EA 01 
   400)     21464.9  Rx     18DA03F1  8  26 30 A1 79 40 EA 01 40 
   401)     21475.0  Rx     18DA03F1  8  27 61 78 40 EA 01 50 21 
   402)     21485.0  Rx     18DA03F1  8  28 78 40 EA 01 60 40 EA 
   403)     21514.9  Rx     18DA03F1  8  29 01 70 23 49 26 39 08 
   404)     21524.9  Rx     18DA03F1  8  2A 62 23 48 00 88 4F F6 
   405)     21535.0  Rx     18DA03F1  8  2B FE 71 08 40 40 F4 25 
   406)     21544.9  Rx     18DA03F1  8  2C 40 1E 49 26 39 A1 F8 
   407)     21555.0  Rx     18DA03F1  8  2D FE 03 00 E0 1F E0 00 
   408)     21564.9  Rx     18DA03F1  8  2E 20 05 90 00 BF 05 98 
   409)     21574.9  Rx     18DA03F1  8  2F 40 1C 05 90 05 98 B0 
   410)     21585.0  Rx     18DA03F1  8  20 F5 00 7F F8 D3 0C 49 
   411)     21614.9  Rx     18DA03F1  8  21 04 98 08 60 03 98 48 
   412)     21624.9  Rx     18DA03F1  8  22 60 02 98 88 60 01 98 
   413)     21634.9  Rx     18DA03F1  8  23 C8 60 08 48 40 1E 08 
   414)     21645.0  Rx     18DA03F1  8  24 61 00 20 05 90 00 BF 
   415)     21686.1  Rx     18DA03F1  8  11 02 36 0C 05 98 40 1C 
   416)     21702.0  Rx     18DA03F1  8  21 05 90 05 98 B0 F5 00 
   417)     21712.0  Rx     18DA03F1  8  22 7F F8 D3 06 B0 10 BD 
   418)     21722.0  Rx     18DA03F1  8  23 00 00 00 80 04 40 01 
   419)     21732.0  Rx     18DA03F1  8  24 00 A5 A5 2E 2E 5C 2E 
   420)     21742.0  Rx     18DA03F1  8  25 2E 5C 64 72 69 76 65 
   421)     21752.0  Rx     18DA03F1  8  26 72 5C 73 72 63 5C 68 
   422)     21762.0  Rx     18DA03F1  8  27 63 33 32 66 34 36 30 
   423)     21772.0  Rx     18DA03F1  8  28 5F 63 6C 6B 2E 63 00 
   424)     21802.0  Rx     18DA03F1  8  29 26 40 05 40 EE FA FF 
   425)     21812.0  Rx     18DA03F1  8  2A FF FE 43 05 40 00 BF 
   426)     21822.0  Rx     18DA03F1  8  2B FE E7 10 B5 AF F3 00 
   427)     21832.0  Rx     18DA03F1  8  2C 80 10 BD 01 49 08 60 
   428)     21842.0  Rx     18DA03F1  8  2D 70 47 00 00 14 04 01 
   429)     21852.0  Rx     18DA03F1  8  2E 40 10 B5 04 46 00 BF 
   430)     21861.9  Rx     18DA03F1  8  2F 0C B1 01 2C 00 D1 04 
   431)     21872.0  Rx     18DA03F1  8  20 E0 40 F2 29 11 05 A0 
   432)     21902.0  Rx     18DA03F1  8  21 FF F7 E8 FF 00 BF 0B 
   433)     21911.9  Rx     18DA03F1  8  22 48 00 68 64 F3 00 00 
   434)     21921.9  Rx     18DA03F1  8  23 09 49 08 60 10 BD 2E 
   435)     21932.0  Rx     18DA03F1  8  24 2E 5C 2E 2E 5C 64 72 
   436)     21941.9  Rx     18DA03F1  8  25 69 76 65 72 5C 73 72 
   437)     21951.9  Rx     18DA03F1  8  26 63 5C 68 63 33 32 66 
   438)     21961.9  Rx     18DA03F1  8  27 34 36 30 5F 65 66 6D 
   439)     21971.9  Rx     18DA03F1  8  28 2E 63 00 0C 04 01 40 
   440)     22001.9  Rx     18DA03F1  8  29 10 B5 04 46 00 BF 0C 
   441)     22012.0  Rx     18DA03F1  8  2A B1 01 2C 00 D1 03 E0 
   442)     22021.9  Rx     18DA03F1  8  2B B9 21 07 A0 FF F7 C3 
   443)     22032.0  Rx     18DA03F1  8  2C FF 00 BF 01 2C 01 D0 
   444)     22041.9  Rx     18DA03F1  8  2D 01 21 00 E0 00 21 0B 
   445)     22051.9  Rx     18DA03F1  8  2E 48 00 68 61 F3 00 00 
   446)     22061.9  Rx     18DA03F1  8  2F 09 49 08 60 10 BD 2E 
   447)     22071.9  Rx     18DA03F1  8  20 2E 5C 2E 2E 5C 64 72 
   448)     22101.9  Rx     18DA03F1  8  21 69 76 65 72 5C 73 72 
   449)     22111.9  Rx     18DA03F1  8  22 63 5C 68 63 33 32 66 
   450)     22121.9  Rx     18DA03F1  8  23 34 36 30 5F 65 66 6D 
   451)     22131.9  Rx     18DA03F1  8  24 2E 63 00 04 04 01 40 
   452)     22174.0  Rx     18DA03F1  8  11 02 36 0D 10 B5 04 46 
   453)     22190.0  Rx     18DA03F1  8  21 00 BF 01 2C 0C D0 02 
   454)     22199.9  Rx     18DA03F1  8  22 2C 0A D0 04 2C 08 D0 
   455)     22209.9  Rx     18DA03F1  8  23 08 2C 06 D0 10 2C 04 
   456)     22220.0  Rx     18DA03F1  8  24 D0 20 2C 02 D0 B4 F5 
   457)     22229.9  Rx     18DA03F1  8  25 80 7F 00 D1 04 E0 40 
   458)     22239.9  Rx     18DA03F1  8  26 F2 93 11 06 A0 FF F7 
   459)     22249.9  Rx     18DA03F1  8  27 8C FF 00 BF 0C 48 00 
   460)     22260.0  Rx     18DA03F1  8  28 68 20 40 08 B1 01 20 
   461)     22290.0  Rx     18DA03F1  8  29 10 BD 00 20 FC E7 00 
   462)     22300.0  Rx     18DA03F1  8  2A 00 2E 2E 5C 2E 2E 5C 
   463)     22309.9  Rx     18DA03F1  8  2B 64 72 69 76 65 72 5C 
   464)     22319.9  Rx     18DA03F1  8  2C 73 72 63 5C 68 63 33 
   465)     22330.0  Rx     18DA03F1  8  2D 32 66 34 36 30 5F 65 
   466)     22339.9  Rx     18DA03F1  8  2E 66 6D 2E 63 00 10 04 
   467)     22350.0  Rx     18DA03F1  8  2F 01 40 04 48 00 68 01 
   468)     22360.0  Rx     18DA03F1  8  20 28 04 D1 43 F2 10 20 
   469)     22390.0  Rx     18DA03F1  8  21 01 49 08 60 08 60 70 
   470)     22399.9  Rx     18DA03F1  8  22 47 00 04 01 40 2D E9 
   471)     22410.0  Rx     18DA03F1  8  23 F0 41 04 46 00 26 00 
   472)     22419.9  Rx     18DA03F1  8  24 27 00 BF 1C B1 1C B1 
   473)     22429.9  Rx     18DA03F1  8  25 24 48 84 42 00 D8 04 
   474)     22440.0  Rx     18DA03F1  8  26 E0 40 F2 FA 21 22 A0 
   475)     22450.0  Rx     18DA03F1  8  27 FF F7 53 FF 00 BF 3F 
   476)     22460.0  Rx     18DA03F1  8  28 20 FF F7 55 FF 27 48 
   477)     22490.0  Rx     18DA03F1  8  29 00 68 C0 F3 00 45 25 
   478)     22500.0  Rx     18DA03F1  8  2A 48 00 68 20 F4 80 30 
   479)     22510.0  Rx     18DA03F1  8  2B 23 49 08 60 01 20 FF 
   480)     22520.0  Rx     18DA03F1  8  2C F7 4E FF 20 48 00 1D 
   481)     22530.0  Rx     18DA03F1  8  2D 00 68 20 F0 70 00 40 
   482)     22540.0  Rx     18DA03F1  8  2E 30 1D 49 09 1D 08 60 
   483)     22550.0  Rx     18DA03F1  8  2F 1D 48 20 60 05 E0 70 
   484)     22560.0  Rx     18DA03F1  8  20 1C 86 B2 B6 F5 80 5F 
   485)     22589.9  Rx     18DA03F1  8  21 00 D9 09 27 17 48 08 
   486)     22600.0  Rx     18DA03F1  8  22 30 00 68 C0 F3 00 20 
   487)     22610.0  Rx     18DA03F1  8  23 00 28 F2 D0 10 20 FF 
   488)     22619.9  Rx     18DA03F1  8  24 F7 2C FF 12 48 00 1D 
   489)     22663.1  Rx     18DA03F1  8  11 02 36 0E 00 68 20 F0 
   490)     22678.9  Rx     18DA03F1  8  21 70 00 10 49 09 1D 08 
   491)     22689.0  Rx     18DA03F1  8  22 60 00 20 FF F7 27 FF 
   492)     22699.0  Rx     18DA03F1  8  23 0D 48 00 68 65 F3 10 
   493)     22708.9  Rx     18DA03F1  8  24 40 0B 49 08 60 38 46 
   494)     22718.9  Rx     18DA03F1  8  25 BD E8 F0 81 DF FF 07 
   495)     22728.9  Rx     18DA03F1  8  26 00 2E 2E 5C 2E 2E 5C 
   496)     22738.9  Rx     18DA03F1  8  27 64 72 69 76 65 72 5C 
   497)     22748.9  Rx     18DA03F1  8  28 73 72 63 5C 68 63 33 
   498)     22779.0  Rx     18DA03F1  8  29 32 66 34 36 30 5F 65 
   499)     22789.0  Rx     18DA03F1  8  2A 66 6D 2E 63 00 08 04 
   500)     22799.0  Rx     18DA03F1  8  2B 01 40 78 56 34 12 10 
   501)     22809.0  Rx     18DA03F1  8  2C B5 04 46 00 BF EC B1 
   502)     22819.0  Rx     18DA03F1  8  2D 01 2C 1B D0 02 2C 19 
   503)     22829.0  Rx     18DA03F1  8  2E D0 03 2C 17 D0 04 2C 
   504)     22839.0  Rx     18DA03F1  8  2F 15 D0 05 2C 13 D0 06 
   505)     22849.0  Rx     18DA03F1  8  20 2C 11 D0 07 2C 0F D0 
   506)     22879.0  Rx     18DA03F1  8  21 08 2C 0D D0 09 2C 0B 
   507)     22888.9  Rx     18DA03F1  8  22 D0 0A 2C 09 D0 0B 2C 
   508)     22898.9  Rx     18DA03F1  8  23 07 D0 0C 2C 05 D0 0D 
   509)     22908.9  Rx     18DA03F1  8  24 2C 03 D0 0E 2C 01 D0 
   510)     22918.9  Rx     18DA03F1  8  25 0F 2C 00 D1 03 E0 DA 
   511)     22929.0  Rx     18DA03F1  8  26 21 05 A0 FF F7 D5 FE 
   512)     22939.0  Rx     18DA03F1  8  27 00 BF 0B 48 00 68 64 
   513)     22949.0  Rx     18DA03F1  8  28 F3 07 10 09 49 08 60 
   514)     22979.0  Rx     18DA03F1  8  29 10 BD 00 00 2E 2E 5C 
   515)     22988.9  Rx     18DA03F1  8  2A 2E 2E 5C 64 72 69 76 
   516)     22999.0  Rx     18DA03F1  8  2B 65 72 5C 73 72 63 5C 
   517)     23009.0  Rx     18DA03F1  8  2C 68 63 33 32 66 34 36 
   518)     23018.9  Rx     18DA03F1  8  2D 30 5F 65 66 6D 2E 63 
   519)     23029.0  Rx     18DA03F1  8  2E 00 08 04 01 40 2D E9 
   520)     23039.0  Rx     18DA03F1  8  2F F0 41 04 46 0D 46 4F 
   521)     23049.0  Rx     18DA03F1  8  20 F0 00 08 00 27 00 BF 
   522)     23079.0  Rx     18DA03F1  8  21 1C B1 1C B1 27 48 84 
   523)     23089.0  Rx     18DA03F1  8  22 42 00 D8 04 E0 40 F2 
   524)     23099.0  Rx     18DA03F1  8  23 19 21 25 A0 FF F7 A7 
   525)     23109.0  Rx     18DA03F1  8  24 FE 00 BF 3F 20 FF F7 
   526)     23152.1  Rx     18DA03F1  8  11 02 36 0F A9 FE 2A 48 
   527)     23168.9  Rx     18DA03F1  8  21 00 68 C0 F3 00 46 28 
   528)     23179.0  Rx     18DA03F1  8  22 48 00 68 20 F4 80 30 
   529)     23189.0  Rx     18DA03F1  8  23 26 49 08 60 01 20 FF 
   530)     23198.9  Rx     18DA03F1  8  24 F7 A2 FE 23 48 00 1D 
   531)     23209.0  Rx     18DA03F1  8  25 00 68 20 F0 70 00 10 
   532)     23219.0  Rx     18DA03F1  8  26 30 20 49 09 1D 08 60 
   533)     23228.9  Rx     18DA03F1  8  27 25 60 06 E0 78 1C 87 
   534)     23239.0  Rx     18DA03F1  8  28 B2 B7 F5 80 5F 01 D9 
   535)     23269.0  Rx     18DA03F1  8  29 4F F0 09 08 1A 48 08 
   536)     23279.0  Rx     18DA03F1  8  2A 30 00 68 C0 F3 00 20 
   537)     23289.0  Rx     18DA03F1  8  2B 00 28 F1 D0 20 68 A8 
   538)     23299.0  Rx     18DA03F1  8  2C 42 01 D0 4F F0 01 08 
   539)     23309.0  Rx     18DA03F1  8  2D 10 20 FF F7 7B FE 13 
   540)     23319.0  Rx     18DA03F1  8  2E 48 00 1D 00 68 20 F0 
   541)     23329.0  Rx     18DA03F1  8  2F 70 00 10 49 09 1D 08 
   542)     23339.0  Rx     18DA03F1  8  20 60 00 20 FF F7 76 FE 
   543)     23368.9  Rx     18DA03F1  8  21 0D 48 00 68 66 F3 10 
   544)     23379.0  Rx     18DA03F1  8  22 40 0B 49 08 60 40 46 
   545)     23389.0  Rx     18DA03F1  8  23 BD E8 F0 81 00 00 DF 
   546)     23399.0  Rx     18DA03F1  8  24 FF 07 00 2E 2E 5C 2E 
   547)     23408.9  Rx     18DA03F1  8  25 2E 5C 64 72 69 76 65 
   548)     23419.0  Rx     18DA03F1  8  26 72 5C 73 72 63 5C 68 
   549)     23428.9  Rx     18DA03F1  8  27 63 33 32 66 34 36 30 
   550)     23439.0  Rx     18DA03F1  8  28 5F 65 66 6D 2E 63 00 
   551)     23469.0  Rx     18DA03F1  8  29 08 04 01 40 40 F2 23 
   552)     23479.0  Rx     18DA03F1  8  2A 10 02 49 08 60 43 F2 
   553)     23489.0  Rx     18DA03F1  8  2B 10 20 08 60 70 47 00 
   554)     23498.9  Rx     18DA03F1  8  2C 04 01 40 10 B5 AF F3 
   555)     23509.0  Rx     18DA03F1  8  2D 00 80 10 BD 10 B5 03 
   556)     23519.0  Rx     18DA03F1  8  2E 48 00 68 10 B1 01 49 
   557)     23528.9  Rx     18DA03F1  8  2F 08 68 80 47 10 BD 18 
   558)     23539.0  Rx     18DA03F1  8  20 80 FF 1F 10 B5 03 48 
   559)     23569.0  Rx     18DA03F1  8  21 40 68 10 B1 01 49 48 
   560)     23579.0  Rx     18DA03F1  8  22 68 80 47 10 BD 18 80 
   561)     23589.0  Rx     18DA03F1  8  23 FF 1F 10 B5 03 48 80 
   562)     23599.0  Rx     18DA03F1  8  24 68 10 B1 01 49 88 68 
   563)     23642.1  Rx     18DA03F1  8  11 02 36 10 80 47 10 BD 
   564)     23659.0  Rx     18DA03F1  8  21 18 80 FF 1F 10 B5 03 
   565)     23668.9  Rx     18DA03F1  8  22 48 C0 68 10 B1 01 49 
   566)     23678.9  Rx     18DA03F1  8  23 C8 68 80 47 10 BD 18 
   567)     23689.0  Rx     18DA03F1  8  24 80 FF 1F 10 B5 03 48 
   568)     23698.9  Rx     18DA03F1  8  25 00 69 10 B1 01 49 08 
   569)     23709.0  Rx     18DA03F1  8  26 69 80 47 10 BD 18 80 
   570)     23719.0  Rx     18DA03F1  8  27 FF 1F 10 B5 03 48 40 
   571)     23728.9  Rx     18DA03F1  8  28 69 10 B1 01 49 48 69 
   572)     23759.0  Rx     18DA03F1  8  29 80 47 10 BD 18 80 FF 
   573)     23768.9  Rx     18DA03F1  8  2A 1F 10 B5 03 48 80 69 
   574)     23778.9  Rx     18DA03F1  8  2B 10 B1 01 49 88 69 80 
   575)     23789.0  Rx     18DA03F1  8  2C 47 10 BD 18 80 FF 1F 
   576)     23798.9  Rx     18DA03F1  8  2D 10 B5 03 48 C0 69 10 
   577)     23808.9  Rx     18DA03F1  8  2E B1 01 49 C8 69 80 47 
   578)     23819.0  Rx     18DA03F1  8  2F 10 BD 18 80 FF 1F 10 
   579)     23828.9  Rx     18DA03F1  8  20 B5 03 48 00 6A 10 B1 
   580)     23859.0  Rx     18DA03F1  8  21 01 49 08 6A 80 47 10 
   581)     23869.0  Rx     18DA03F1  8  22 BD 18 80 FF 1F 10 B5 
   582)     23879.0  Rx     18DA03F1  8  23 03 48 40 6A 10 B1 01 
   583)     23889.0  Rx     18DA03F1  8  24 49 48 6A 80 47 10 BD 
   584)     23899.0  Rx     18DA03F1  8  25 18 80 FF 1F 10 B5 03 
   585)     23909.0  Rx     18DA03F1  8  26 48 80 6A 10 B1 01 49 
   586)     23919.0  Rx     18DA03F1  8  27 88 6A 80 47 10 BD 18 
   587)     23929.0  Rx     18DA03F1  8  28 80 FF 1F 10 B5 03 48 
   588)     23959.0  Rx     18DA03F1  8  29 C0 6A 10 B1 01 49 C8 
   589)     23969.0  Rx     18DA03F1  8  2A 6A 80 47 10 BD 18 80 
   590)     23979.0  Rx     18DA03F1  8  2B FF 1F 10 B5 03 48 00 
   591)     23989.0  Rx     18DA03F1  8  2C 6B 10 B1 01 49 08 6B 
   592)     23999.0  Rx     18DA03F1  8  2D 80 47 10 BD 18 80 FF 
   593)     24009.0  Rx     18DA03F1  8  2E 1F 10 B5 03 48 40 6B 
   594)     24019.0  Rx     18DA03F1  8  2F 10 B1 01 49 48 6B 80 
   595)     24029.0  Rx     18DA03F1  8  20 47 10 BD 18 80 FF 1F 
   596)     24059.0  Rx     18DA03F1  8  21 10 B5 03 48 80 6B 10 
   597)     24069.0  Rx     18DA03F1  8  22 B1 01 49 88 6B 80 47 
   598)     24079.0  Rx     18DA03F1  8  23 10 BD 18 80 FF 1F 10 
   599)     24089.0  Rx     18DA03F1  8  24 B5 03 48 C0 6B 10 B1 
   600)     24133.1  Rx     18DA03F1  8  11 02 36 11 01 49 C8 6B 
   601)     24149.9  Rx     18DA03F1  8  21 80 47 10 BD 18 80 FF 
   602)     24160.0  Rx     18DA03F1  8  22 1F 10 B5 03 48 00 6C 
   603)     24170.0  Rx     18DA03F1  8  23 10 B1 01 49 08 6C 80 
   604)     24179.9  Rx     18DA03F1  8  24 47 10 BD 18 80 FF 1F 
   605)     24190.0  Rx     18DA03F1  8  25 10 B5 03 48 40 6C 10 
   606)     24200.0  Rx     18DA03F1  8  26 B1 01 49 48 6C 80 47 
   607)     24209.9  Rx     18DA03F1  8  27 10 BD 18 80 FF 1F 10 
   608)     24220.0  Rx     18DA03F1  8  28 B5 03 48 80 6C 10 B1 
   609)     24249.9  Rx     18DA03F1  8  29 01 49 88 6C 80 47 10 
   610)     24259.9  Rx     18DA03F1  8  2A BD 18 80 FF 1F 10 B5 
   611)     24270.0  Rx     18DA03F1  8  2B 03 48 C0 6C 10 B1 01 
   612)     24279.9  Rx     18DA03F1  8  2C 49 C8 6C 80 47 10 BD 
   613)     24289.9  Rx     18DA03F1  8  2D 18 80 FF 1F 10 B5 03 
   614)     24300.0  Rx     18DA03F1  8  2E 48 00 6D 10 B1 01 49 
   615)     24309.9  Rx     18DA03F1  8  2F 08 6D 80 47 10 BD 18 
   616)     24320.0  Rx     18DA03F1  8  20 80 FF 1F 10 B5 03 48 
   617)     24350.0  Rx     18DA03F1  8  21 40 6D 10 B1 01 49 48 
   618)     24360.0  Rx     18DA03F1  8  22 6D 80 47 10 BD 18 80 
   619)     24370.0  Rx     18DA03F1  8  23 FF 1F 10 B5 03 48 80 
   620)     24379.9  Rx     18DA03F1  8  24 6D 10 B1 01 49 88 6D 
   621)     24390.0  Rx     18DA03F1  8  25 80 47 10 BD 18 80 FF 
   622)     24400.0  Rx     18DA03F1  8  26 1F 10 B5 03 48 C0 6D 
   623)     24410.0  Rx     18DA03F1  8  27 10 B1 01 49 C8 6D 80 
   624)     24420.0  Rx     18DA03F1  8  28 47 10 BD 18 80 FF 1F 
   625)     24450.0  Rx     18DA03F1  8  29 10 B5 03 48 00 6E 10 
   626)     24460.0  Rx     18DA03F1  8  2A B1 01 49 08 6E 80 47 
   627)     24469.9  Rx     18DA03F1  8  2B 10 BD 18 80 FF 1F 10 
   628)     24479.9  Rx     18DA03F1  8  2C B5 03 48 40 6E 10 B1 
   629)     24489.9  Rx     18DA03F1  8  2D 01 49 48 6E 80 47 10 
   630)     24499.9  Rx     18DA03F1  8  2E BD 18 80 FF 1F 10 B5 
   631)     24510.0  Rx     18DA03F1  8  2F 03 48 80 6E 10 B1 01 
   632)     24520.0  Rx     18DA03F1  8  20 49 88 6E 80 47 10 BD 
   633)     24550.0  Rx     18DA03F1  8  21 18 80 FF 1F 10 B5 03 
   634)     24559.9  Rx     18DA03F1  8  22 48 C0 6E 10 B1 01 49 
   635)     24570.0  Rx     18DA03F1  8  23 C8 6E 80 47 10 BD 18 
   636)     24580.0  Rx     18DA03F1  8  24 80 FF 1F 10 B5 03 48 
   637)     24624.1  Rx     18DA03F1  8  11 02 36 12 00 6F 10 B1 
   638)     24639.9  Rx     18DA03F1  8  21 01 49 08 6F 80 47 10 
   639)     24650.0  Rx     18DA03F1  8  22 BD 18 80 FF 1F 10 B5 
   640)     24659.9  Rx     18DA03F1  8  23 03 48 40 6F 10 B1 01 
   641)     24669.9  Rx     18DA03F1  8  24 49 48 6F 80 47 10 BD 
   642)     24680.0  Rx     18DA03F1  8  25 18 80 FF 1F 10 B5 03 
   643)     24689.9  Rx     18DA03F1  8  26 48 80 6F 10 B1 01 49 
   644)     24699.9  Rx     18DA03F1  8  27 88 6F 80 47 10 BD 18 
   645)     24709.9  Rx     18DA03F1  8  28 80 FF 1F 10 B5 03 48 
   646)     24739.9  Rx     18DA03F1  8  29 C0 6F 10 B1 01 49 C8 
   647)     24749.9  Rx     18DA03F1  8  2A 6F 80 47 10 BD 18 80 
   648)     24760.0  Rx     18DA03F1  8  2B FF 1F 10 B5 04 48 D0 
   649)     24770.0  Rx     18DA03F1  8  2C F8 80 00 18 B1 02 49 
   650)     24780.0  Rx     18DA03F1  8  2D D1 F8 80 00 80 47 10 
   651)     24790.0  Rx     18DA03F1  8  2E BD 18 80 FF 1F 10 B5 
   652)     24799.9  Rx     18DA03F1  8  2F 04 48 D0 F8 84 00 18 
   653)     24810.0  Rx     18DA03F1  8  20 B1 02 49 D1 F8 84 00 
   654)     24840.0  Rx     18DA03F1  8  21 80 47 10 BD 18 80 FF 
   655)     24850.0  Rx     18DA03F1  8  22 1F 10 B5 04 48 D0 F8 
   656)     24860.0  Rx     18DA03F1  8  23 88 00 18 B1 02 49 D1 
   657)     24870.0  Rx     18DA03F1  8  24 F8 88 00 80 47 10 BD 
   658)     24880.0  Rx     18DA03F1  8  25 18 80 FF 1F 10 B5 04 
   659)     24890.0  Rx     18DA03F1  8  26 48 D0 F8 8C 00 18 B1 
   660)     24900.0  Rx     18DA03F1  8  27 02 49 D1 F8 8C 00 80 
   661)     24910.0  Rx     18DA03F1  8  28 47 10 BD 18 80 FF 1F 
   662)     24940.0  Rx     18DA03F1  8  29 10 B5 04 48 D0 F8 90 
   663)     24950.0  Rx     18DA03F1  8  2A 00 18 B1 02 49 D1 F8 
   664)     24960.0  Rx     18DA03F1  8  2B 90 00 80 47 10 BD 18 
   665)     24970.0  Rx     18DA03F1  8  2C 80 FF 1F 10 B5 04 48 
   666)     24980.0  Rx     18DA03F1  8  2D D0 F8 94 00 18 B1 02 
   667)     24990.0  Rx     18DA03F1  8  2E 49 D1 F8 94 00 80 47 
   668)     25000.0  Rx     18DA03F1  8  2F 10 BD 18 80 FF 1F 10 
   669)     25010.0  Rx     18DA03F1  8  20 B5 04 48 D0 F8 98 00 
   670)     25040.0  Rx     18DA03F1  8  21 18 B1 02 49 D1 F8 98 
   671)     25050.0  Rx     18DA03F1  8  22 00 80 47 10 BD 18 80 
   672)     25060.1  Rx     18DA03F1  8  23 FF 1F 10 B5 04 48 D0 
   673)     25070.0  Rx     18DA03F1  8  24 F8 9C 00 18 B1 02 49 
   674)     25113.1  Rx     18DA03F1  8  11 02 36 13 D1 F8 9C 00 
   675)     25129.0  Rx     18DA03F1  8  21 80 47 10 BD 18 80 FF 
   676)     25139.0  Rx     18DA03F1  8  22 1F 10 B5 04 48 D0 F8 
   677)     25149.0  Rx     18DA03F1  8  23 A0 00 18 B1 02 49 D1 
   678)     25159.0  Rx     18DA03F1  8  24 F8 A0 00 80 47 10 BD 
   679)     25169.0  Rx     18DA03F1  8  25 18 80 FF 1F 10 B5 04 
   680)     25179.0  Rx     18DA03F1  8  26 48 D0 F8 A4 00 18 B1 
   681)     25189.0  Rx     18DA03F1  8  27 02 49 D1 F8 A4 00 80 
   682)     25199.0  Rx     18DA03F1  8  28 47 10 BD 18 80 FF 1F 
   683)     25229.0  Rx     18DA03F1  8  29 10 B5 04 48 D0 F8 A8 
   684)     25239.0  Rx     18DA03F1  8  2A 00 18 B1 02 49 D1 F8 
   685)     25249.0  Rx     18DA03F1  8  2B A8 00 80 47 10 BD 18 
   686)     25259.0  Rx     18DA03F1  8  2C 80 FF 1F 10 B5 04 48 
   687)     25269.0  Rx     18DA03F1  8  2D D0 F8 AC 00 18 B1 02 
   688)     25279.0  Rx     18DA03F1  8  2E 49 D1 F8 AC 00 80 47 
   689)     25289.0  Rx     18DA03F1  8  2F 10 BD 18 80 FF 1F 10 
   690)     25299.0  Rx     18DA03F1  8  20 B5 04 48 D0 F8 B0 00 
   691)     25329.0  Rx     18DA03F1  8  21 18 B1 02 49 D1 F8 B0 
   692)     25339.0  Rx     18DA03F1  8  22 00 80 47 10 BD 18 80 
   693)     25349.0  Rx     18DA03F1  8  23 FF 1F 10 B5 04 48 D0 
   694)     25359.0  Rx     18DA03F1  8  24 F8 B4 00 18 B1 02 49 
   695)     25369.0  Rx     18DA03F1  8  25 D1 F8 B4 00 80 47 10 
   696)     25379.0  Rx     18DA03F1  8  26 BD 18 80 FF 1F 10 B5 
   697)     25389.0  Rx     18DA03F1  8  27 04 48 D0 F8 B8 00 18 
   698)     25399.0  Rx     18DA03F1  8  28 B1 02 49 D1 F8 B8 00 
   699)     25429.0  Rx     18DA03F1  8  29 80 47 10 BD 18 80 FF 
   700)     25439.0  Rx     18DA03F1  8  2A 1F 10 B5 04 48 D0 F8 
   701)     25449.0  Rx     18DA03F1  8  2B BC 00 18 B1 02 49 D1 
   702)     25459.0  Rx     18DA03F1  8  2C F8 BC 00 80 47 10 BD 
   703)     25469.0  Rx     18DA03F1  8  2D 18 80 FF 1F 10 B5 04 
   704)     25479.0  Rx     18DA03F1  8  2E 48 D0 F8 C0 00 18 B1 
   705)     25489.0  Rx     18DA03F1  8  2F 02 49 D1 F8 C0 00 80 
   706)     25499.0  Rx     18DA03F1  8  20 47 10 BD 18 80 FF 1F 
   707)     25529.0  Rx     18DA03F1  8  21 10 B5 04 48 D0 F8 C4 
   708)     25539.0  Rx     18DA03F1  8  22 00 18 B1 02 49 D1 F8 
   709)     25549.0  Rx     18DA03F1  8  23 C4 00 80 47 10 BD 18 
   710)     25559.0  Rx     18DA03F1  8  24 80 FF 1F 10 B5 04 48 
   711)     25602.1  Rx     18DA03F1  8  11 02 36 14 D0 F8 C8 00 
   712)     25618.0  Rx     18DA03F1  8  21 18 B1 02 49 D1 F8 C8 
   713)     25628.0  Rx     18DA03F1  8  22 00 80 47 10 BD 18 80 
   714)     25638.0  Rx     18DA03F1  8  23 FF 1F 10 B5 04 48 D0 
   715)     25647.9  Rx     18DA03F1  8  24 F8 CC 00 18 B1 02 49 
   716)     25658.0  Rx     18DA03F1  8  25 D1 F8 CC 00 80 47 10 
   717)     25667.9  Rx     18DA03F1  8  26 BD 18 80 FF 1F 10 B5 
   718)     25678.0  Rx     18DA03F1  8  27 04 48 D0 F8 D0 00 18 
   719)     25688.0  Rx     18DA03F1  8  28 B1 02 49 D1 F8 D0 00 
   720)     25718.0  Rx     18DA03F1  8  29 80 47 10 BD 18 80 FF 
   721)     25728.0  Rx     18DA03F1  8  2A 1F 10 B5 04 48 D0 F8 
   722)     25738.0  Rx     18DA03F1  8  2B D4 00 18 B1 02 49 D1 
   723)     25748.0  Rx     18DA03F1  8  2C F8 D4 00 80 47 10 BD 
   724)     25758.0  Rx     18DA03F1  8  2D 18 80 FF 1F 10 B5 04 
   725)     25768.0  Rx     18DA03F1  8  2E 48 D0 F8 D8 00 18 B1 
   726)     25778.0  Rx     18DA03F1  8  2F 02 49 D1 F8 D8 00 80 
   727)     25788.0  Rx     18DA03F1  8  20 47 10 BD 18 80 FF 1F 
   728)     25818.0  Rx     18DA03F1  8  21 10 B5 04 48 D0 F8 DC 
   729)     25828.0  Rx     18DA03F1  8  22 00 18 B1 02 49 D1 F8 
   730)     25838.0  Rx     18DA03F1  8  23 DC 00 80 47 10 BD 18 
   731)     25848.0  Rx     18DA03F1  8  24 80 FF 1F 10 B5 04 48 
   732)     25858.0  Rx     18DA03F1  8  25 D0 F8 E0 00 18 B1 02 
   733)     25868.0  Rx     18DA03F1  8  26 49 D1 F8 E0 00 80 47 
   734)     25878.0  Rx     18DA03F1  8  27 10 BD 18 80 FF 1F 10 
   735)     25888.0  Rx     18DA03F1  8  28 B5 04 48 D0 F8 E4 00 
   736)     25918.0  Rx     18DA03F1  8  29 18 B1 02 49 D1 F8 E4 
   737)     25928.0  Rx     18DA03F1  8  2A 00 80 47 10 BD 18 80 
   738)     25938.0  Rx     18DA03F1  8  2B FF 1F 10 B5 04 48 D0 
   739)     25948.0  Rx     18DA03F1  8  2C F8 E8 00 18 B1 02 49 
   740)     25958.0  Rx     18DA03F1  8  2D D1 F8 E8 00 80 47 10 
   741)     25967.9  Rx     18DA03F1  8  2E BD 18 80 FF 1F 10 B5 
   742)     25978.0  Rx     18DA03F1  8  2F 04 48 D0 F8 EC 00 18 
   743)     25988.0  Rx     18DA03F1  8  20 B1 02 49 D1 F8 EC 00 
   744)     26018.0  Rx     18DA03F1  8  21 80 47 10 BD 18 80 FF 
   745)     26027.9  Rx     18DA03F1  8  22 1F 10 B5 04 48 D0 F8 
   746)     26038.0  Rx     18DA03F1  8  23 F0 00 18 B1 02 49 D1 
   747)     26047.9  Rx     18DA03F1  8  24 F8 F0 00 80 47 10 BD 
   748)     26091.0  Rx     18DA03F1  8  11 02 36 15 18 80 FF 1F 
   749)     26107.9  Rx     18DA03F1  8  21 10 B5 04 48 D0 F8 F4 
   750)     26118.0  Rx     18DA03F1  8  22 00 18 B1 02 49 D1 F8 
   751)     26127.9  Rx     18DA03F1  8  23 F4 00 80 47 10 BD 18 
   752)     26137.9  Rx     18DA03F1  8  24 80 FF 1F 10 B5 04 48 
   753)     26148.0  Rx     18DA03F1  8  25 D0 F8 F8 00 18 B1 02 
   754)     26158.0  Rx     18DA03F1  8  26 49 D1 F8 F8 00 80 47 
   755)     26168.0  Rx     18DA03F1  8  27 10 BD 18 80 FF 1F 10 
   756)     26178.0  Rx     18DA03F1  8  28 B5 04 48 D0 F8 FC 00 
   757)     26208.0  Rx     18DA03F1  8  29 18 B1 02 49 D1 F8 FC 
   758)     26218.0  Rx     18DA03F1  8  2A 00 80 47 10 BD 18 80 
   759)     26228.0  Rx     18DA03F1  8  2B FF 1F 10 B5 04 48 D0 
   760)     26238.0  Rx     18DA03F1  8  2C F8 00 01 18 B1 02 49 
   761)     26248.0  Rx     18DA03F1  8  2D D1 F8 00 01 80 47 10 
   762)     26258.0  Rx     18DA03F1  8  2E BD 18 80 FF 1F 10 B5 
   763)     26268.0  Rx     18DA03F1  8  2F 04 48 D0 F8 04 01 18 
   764)     26277.9  Rx     18DA03F1  8  20 B1 02 49 D1 F8 04 01 
   765)     26308.0  Rx     18DA03F1  8  21 80 47 10 BD 18 80 FF 
   766)     26318.0  Rx     18DA03F1  8  22 1F 10 B5 04 48 D0 F8 
   767)     26328.0  Rx     18DA03F1  8  23 08 01 18 B1 02 49 D1 
   768)     26338.0  Rx     18DA03F1  8  24 F8 08 01 80 47 10 BD 
   769)     26348.0  Rx     18DA03F1  8  25 18 80 FF 1F 10 B5 04 
   770)     26358.0  Rx     18DA03F1  8  26 48 D0 F8 0C 01 18 B1 
   771)     26368.0  Rx     18DA03F1  8  27 02 49 D1 F8 0C 01 80 
   772)     26378.0  Rx     18DA03F1  8  28 47 10 BD 18 80 FF 1F 
   773)     26408.0  Rx     18DA03F1  8  29 10 B5 04 48 D0 F8 10 
   774)     26418.0  Rx     18DA03F1  8  2A 01 18 B1 02 49 D1 F8 
   775)     26428.0  Rx     18DA03F1  8  2B 10 01 80 47 10 BD 18 
   776)     26438.0  Rx     18DA03F1  8  2C 80 FF 1F 10 B5 04 48 
   777)     26448.0  Rx     18DA03F1  8  2D D0 F8 14 01 18 B1 02 
   778)     26458.0  Rx     18DA03F1  8  2E 49 D1 F8 14 01 80 47 
   779)     26468.0  Rx     18DA03F1  8  2F 10 BD 18 80 FF 1F 10 
   780)     26478.0  Rx     18DA03F1  8  20 B5 04 48 D0 F8 18 01 
   781)     26508.0  Rx     18DA03F1  8  21 18 B1 02 49 D1 F8 18 
   782)     26518.0  Rx     18DA03F1  8  22 01 80 47 10 BD 18 80 
   783)     26528.0  Rx     18DA03F1  8  23 FF 1F 10 B5 04 48 D0 
   784)     26538.0  Rx     18DA03F1  8  24 F8 1C 01 18 B1 02 49 
   785)     26588.1  Rx     18DA03F1  8  11 02 36 16 D1 F8 1C 01 
   786)     26605.0  Rx     18DA03F1  8  21 80 47 10 BD 18 80 FF 
   787)     26615.0  Rx     18DA03F1  8  22 1F 10 B5 04 48 D0 F8 
   788)     26625.0  Rx     18DA03F1  8  23 20 01 18 B1 02 49 D1 
   789)     26635.0  Rx     18DA03F1  8  24 F8 20 01 80 47 10 BD 
   790)     26645.0  Rx     18DA03F1  8  25 18 80 FF 1F 10 B5 04 
   791)     26655.0  Rx     18DA03F1  8  26 48 D0 F8 24 01 18 B1 
   792)     26665.0  Rx     18DA03F1  8  27 02 49 D1 F8 24 01 80 
   793)     26675.0  Rx     18DA03F1  8  28 47 10 BD 18 80 FF 1F 
   794)     26705.0  Rx     18DA03F1  8  29 10 B5 04 48 D0 F8 28 
   795)     26715.0  Rx     18DA03F1  8  2A 01 18 B1 02 49 D1 F8 
   796)     26725.0  Rx     18DA03F1  8  2B 28 01 80 47 10 BD 18 
   797)     26735.0  Rx     18DA03F1  8  2C 80 FF 1F 10 B5 04 48 
   798)     26745.0  Rx     18DA03F1  8  2D D0 F8 2C 01 18 B1 02 
   799)     26755.0  Rx     18DA03F1  8  2E 49 D1 F8 2C 01 80 47 
   800)     26765.0  Rx     18DA03F1  8  2F 10 BD 18 80 FF 1F 10 
   801)     26775.0  Rx     18DA03F1  8  20 B5 04 48 D0 F8 30 01 
   802)     26805.0  Rx     18DA03F1  8  21 18 B1 02 49 D1 F8 30 
   803)     26815.0  Rx     18DA03F1  8  22 01 80 47 10 BD 18 80 
   804)     26825.0  Rx     18DA03F1  8  23 FF 1F 10 B5 04 48 D0 
   805)     26835.0  Rx     18DA03F1  8  24 F8 34 01 18 B1 02 49 
   806)     26845.0  Rx     18DA03F1  8  25 D1 F8 34 01 80 47 10 
   807)     26855.0  Rx     18DA03F1  8  26 BD 18 80 FF 1F 10 B5 
   808)     26865.0  Rx     18DA03F1  8  27 04 48 D0 F8 38 01 18 
   809)     26875.0  Rx     18DA03F1  8  28 B1 02 49 D1 F8 38 01 
   810)     26905.0  Rx     18DA03F1  8  29 80 47 10 BD 18 80 FF 
   811)     26915.0  Rx     18DA03F1  8  2A 1F 10 B5 04 48 D0 F8 
   812)     26925.0  Rx     18DA03F1  8  2B 3C 01 18 B1 02 49 D1 
   813)     26935.0  Rx     18DA03F1  8  2C F8 3C 01 80 47 10 BD 
   814)     26945.0  Rx     18DA03F1  8  2D 18 80 FF 1F 10 B5 04 
   815)     26955.0  Rx     18DA03F1  8  2E 48 D0 F8 40 01 18 B1 
   816)     26965.0  Rx     18DA03F1  8  2F 02 49 D1 F8 40 01 80 
   817)     26975.0  Rx     18DA03F1  8  20 47 10 BD 18 80 FF 1F 
   818)     27005.0  Rx     18DA03F1  8  21 10 B5 04 48 D0 F8 44 
   819)     27015.0  Rx     18DA03F1  8  22 01 18 B1 02 49 D1 F8 
   820)     27025.0  Rx     18DA03F1  8  23 44 01 80 47 10 BD 18 
   821)     27035.0  Rx     18DA03F1  8  24 80 FF 1F 10 B5 04 48 
   822)     27079.1  Rx     18DA03F1  8  11 02 36 17 D0 F8 48 01 
   823)     27096.0  Rx     18DA03F1  8  21 18 B1 02 49 D1 F8 48 
   824)     27106.0  Rx     18DA03F1  8  22 01 80 47 10 BD 18 80 
   825)     27116.1  Rx     18DA03F1  8  23 FF 1F 10 B5 04 48 D0 
   826)     27126.0  Rx     18DA03F1  8  24 F8 4C 01 18 B1 02 49 
   827)     27136.0  Rx     18DA03F1  8  25 D1 F8 4C 01 80 47 10 
   828)     27146.0  Rx     18DA03F1  8  26 BD 18 80 FF 1F 10 B5 
   829)     27156.0  Rx     18DA03F1  8  27 04 48 D0 F8 50 01 18 
   830)     27166.0  Rx     18DA03F1  8  28 B1 02 49 D1 F8 50 01 
   831)     27196.0  Rx     18DA03F1  8  29 80 47 10 BD 18 80 FF 
   832)     27206.0  Rx     18DA03F1  8  2A 1F 10 B5 04 48 D0 F8 
   833)     27216.0  Rx     18DA03F1  8  2B 54 01 18 B1 02 49 D1 
   834)     27226.0  Rx     18DA03F1  8  2C F8 54 01 80 47 10 BD 
   835)     27236.0  Rx     18DA03F1  8  2D 18 80 FF 1F 10 B5 04 
   836)     27246.0  Rx     18DA03F1  8  2E 48 D0 F8 58 01 18 B1 
   837)     27256.0  Rx     18DA03F1  8  2F 02 49 D1 F8 58 01 80 
   838)     27266.0  Rx     18DA03F1  8  20 47 10 BD 18 80 FF 1F 
   839)     27296.0  Rx     18DA03F1  8  21 10 B5 04 48 D0 F8 5C 
   840)     27306.0  Rx     18DA03F1  8  22 01 18 B1 02 49 D1 F8 
   841)     27316.0  Rx     18DA03F1  8  23 5C 01 80 47 10 BD 18 
   842)     27326.0  Rx     18DA03F1  8  24 80 FF 1F 10 B5 04 48 
   843)     27336.0  Rx     18DA03F1  8  25 D0 F8 60 01 18 B1 02 
   844)     27346.0  Rx     18DA03F1  8  26 49 D1 F8 60 01 80 47 
   845)     27356.0  Rx     18DA03F1  8  27 10 BD 18 80 FF 1F 10 
   846)     27366.0  Rx     18DA03F1  8  28 B5 04 48 D0 F8 64 01 
   847)     27396.0  Rx     18DA03F1  8  29 18 B1 02 49 D1 F8 64 
   848)     27406.0  Rx     18DA03F1  8  2A 01 80 47 10 BD 18 80 
   849)     27416.0  Rx     18DA03F1  8  2B FF 1F 10 B5 04 48 D0 
   850)     27426.0  Rx     18DA03F1  8  2C F8 68 01 18 B1 02 49 
   851)     27436.0  Rx     18DA03F1  8  2D D1 F8 68 01 80 47 10 
   852)     27446.0  Rx     18DA03F1  8  2E BD 18 80 FF 1F 10 B5 
   853)     27456.0  Rx     18DA03F1  8  2F 04 48 D0 F8 6C 01 18 
   854)     27466.0  Rx     18DA03F1  8  20 B1 02 49 D1 F8 6C 01 
   855)     27496.0  Rx     18DA03F1  8  21 80 47 10 BD 18 80 FF 
   856)     27506.0  Rx     18DA03F1  8  22 1F 10 B5 04 48 D0 F8 
   857)     27516.0  Rx     18DA03F1  8  23 70 01 18 B1 02 49 D1 
   858)     27526.0  Rx     18DA03F1  8  24 F8 70 01 80 47 10 BD 
   859)     27570.1  Rx     18DA03F1  8  11 02 36 18 18 80 FF 1F 
   860)     27587.0  Rx     18DA03F1  8  21 10 B5 04 48 D0 F8 74 
   861)     27597.0  Rx     18DA03F1  8  22 01 18 B1 02 49 D1 F8 
   862)     27607.0  Rx     18DA03F1  8  23 74 01 80 47 10 BD 18 
   863)     27617.0  Rx     18DA03F1  8  24 80 FF 1F 10 B5 04 48 
   864)     27627.0  Rx     18DA03F1  8  25 D0 F8 78 01 18 B1 02 
   865)     27637.0  Rx     18DA03F1  8  26 49 D1 F8 78 01 80 47 
   866)     27647.0  Rx     18DA03F1  8  27 10 BD 18 80 FF 1F 10 
   867)     27657.0  Rx     18DA03F1  8  28 B5 04 48 D0 F8 7C 01 
   868)     27687.0  Rx     18DA03F1  8  29 18 B1 02 49 D1 F8 7C 
   869)     27697.0  Rx     18DA03F1  8  2A 01 80 47 10 BD 18 80 
   870)     27707.0  Rx     18DA03F1  8  2B FF 1F 10 B5 04 48 D0 
   871)     27717.0  Rx     18DA03F1  8  2C F8 80 01 18 B1 02 49 
   872)     27727.0  Rx     18DA03F1  8  2D D1 F8 80 01 80 47 10 
   873)     27737.0  Rx     18DA03F1  8  2E BD 18 80 FF 1F 10 B5 
   874)     27747.0  Rx     18DA03F1  8  2F 04 48 D0 F8 84 01 18 
   875)     27757.0  Rx     18DA03F1  8  20 B1 02 49 D1 F8 84 01 
   876)     27787.0  Rx     18DA03F1  8  21 80 47 10 BD 18 80 FF 
   877)     27797.0  Rx     18DA03F1  8  22 1F 10 B5 04 48 D0 F8 
   878)     27807.0  Rx     18DA03F1  8  23 88 01 18 B1 02 49 D1 
   879)     27817.0  Rx     18DA03F1  8  24 F8 88 01 80 47 10 BD 
   880)     27827.0  Rx     18DA03F1  8  25 18 80 FF 1F 10 B5 04 
   881)     27837.0  Rx     18DA03F1  8  26 48 D0 F8 8C 01 18 B1 
   882)     27847.0  Rx     18DA03F1  8  27 02 49 D1 F8 8C 01 80 
   883)     27857.0  Rx     18DA03F1  8  28 47 10 BD 18 80 FF 1F 
   884)     27887.0  Rx     18DA03F1  8  29 10 B5 04 48 D0 F8 90 
   885)     27897.0  Rx     18DA03F1  8  2A 01 18 B1 02 49 D1 F8 
   886)     27907.0  Rx     18DA03F1  8  2B 90 01 80 47 10 BD 18 
   887)     27917.0  Rx     18DA03F1  8  2C 80 FF 1F 10 B5 04 48 
   888)     27927.0  Rx     18DA03F1  8  2D D0 F8 94 01 18 B1 02 
   889)     27937.0  Rx     18DA03F1  8  2E 49 D1 F8 94 01 80 47 
   890)     27947.0  Rx     18DA03F1  8  2F 10 BD 18 80 FF 1F 10 
   891)     27957.0  Rx     18DA03F1  8  20 B5 04 48 D0 F8 98 01 
   892)     27987.0  Rx     18DA03F1  8  21 18 B1 02 49 D1 F8 98 
   893)     27997.0  Rx     18DA03F1  8  22 01 80 47 10 BD 18 80 
   894)     28007.0  Rx     18DA03F1  8  23 FF 1F 10 B5 04 48 D0 
   895)     28017.0  Rx     18DA03F1  8  24 F8 9C 01 18 B1 02 49 
   896)     28060.0  Rx     18DA03F1  8  11 02 36 19 D1 F8 9C 01 
   897)     28077.0  Rx     18DA03F1  8  21 80 47 10 BD 18 80 FF 
   898)     28087.0  Rx     18DA03F1  8  22 1F 10 B5 04 48 D0 F8 
   899)     28097.0  Rx     18DA03F1  8  23 A0 01 18 B1 02 49 D1 
   900)     28107.0  Rx     18DA03F1  8  24 F8 A0 01 80 47 10 BD 
   901)     28117.0  Rx     18DA03F1  8  25 18 80 FF 1F 10 B5 04 
   902)     28127.0  Rx     18DA03F1  8  26 48 D0 F8 A4 01 18 B1 
   903)     28137.0  Rx     18DA03F1  8  27 02 49 D1 F8 A4 01 80 
   904)     28147.0  Rx     18DA03F1  8  28 47 10 BD 18 80 FF 1F 
   905)     28177.0  Rx     18DA03F1  8  29 10 B5 04 48 D0 F8 A8 
   906)     28187.0  Rx     18DA03F1  8  2A 01 18 B1 02 49 D1 F8 
   907)     28197.0  Rx     18DA03F1  8  2B A8 01 80 47 10 BD 18 
   908)     28207.0  Rx     18DA03F1  8  2C 80 FF 1F 10 B5 04 48 
   909)     28217.0  Rx     18DA03F1  8  2D D0 F8 AC 01 18 B1 02 
   910)     28226.9  Rx     18DA03F1  8  2E 49 D1 F8 AC 01 80 47 
   911)     28237.0  Rx     18DA03F1  8  2F 10 BD 18 80 FF 1F 10 
   912)     28247.0  Rx     18DA03F1  8  20 B5 04 48 D0 F8 B0 01 
   913)     28277.0  Rx     18DA03F1  8  21 18 B1 02 49 D1 F8 B0 
   914)     28287.0  Rx     18DA03F1  8  22 01 80 47 10 BD 18 80 
   915)     28297.0  Rx     18DA03F1  8  23 FF 1F 10 B5 04 48 D0 
   916)     28307.0  Rx     18DA03F1  8  24 F8 B4 01 18 B1 02 49 
   917)     28317.0  Rx     18DA03F1  8  25 D1 F8 B4 01 80 47 10 
   918)     28327.0  Rx     18DA03F1  8  26 BD 18 80 FF 1F 10 B5 
   919)     28337.0  Rx     18DA03F1  8  27 04 48 D0 F8 B8 01 18 
   920)     28347.0  Rx     18DA03F1  8  28 B1 02 49 D1 F8 B8 01 
   921)     28377.0  Rx     18DA03F1  8  29 80 47 10 BD 18 80 FF 
   922)     28387.0  Rx     18DA03F1  8  2A 1F 10 B5 04 48 D0 F8 
   923)     28397.0  Rx     18DA03F1  8  2B BC 01 18 B1 02 49 D1 
   924)     28407.0  Rx     18DA03F1  8  2C F8 BC 01 80 47 10 BD 
   925)     28417.0  Rx     18DA03F1  8  2D 18 80 FF 1F 10 B5 04 
   926)     28427.0  Rx     18DA03F1  8  2E 48 D0 F8 C0 01 18 B1 
   927)     28437.0  Rx     18DA03F1  8  2F 02 49 D1 F8 C0 01 80 
   928)     28447.0  Rx     18DA03F1  8  20 47 10 BD 18 80 FF 1F 
   929)     28477.0  Rx     18DA03F1  8  21 10 B5 04 48 D0 F8 C4 
   930)     28487.0  Rx     18DA03F1  8  22 01 18 B1 02 49 D1 F8 
   931)     28497.0  Rx     18DA03F1  8  23 C4 01 80 47 10 BD 18 
   932)     28507.0  Rx     18DA03F1  8  24 80 FF 1F 10 B5 04 48 
   933)     28551.1  Rx     18DA03F1  8  11 02 36 1A D0 F8 C8 01 
   934)     28568.1  Rx     18DA03F1  8  21 18 B1 02 49 D1 F8 C8 
   935)     28578.0  Rx     18DA03F1  8  22 01 80 47 10 BD 18 80 
   936)     28588.1  Rx     18DA03F1  8  23 FF 1F 10 B5 04 48 D0 
   937)     28598.0  Rx     18DA03F1  8  24 F8 CC 01 18 B1 02 49 
   938)     28608.0  Rx     18DA03F1  8  25 D1 F8 CC 01 80 47 10 
   939)     28618.0  Rx     18DA03F1  8  26 BD 18 80 FF 1F 10 B5 
   940)     28628.0  Rx     18DA03F1  8  27 04 48 D0 F8 D0 01 18 
   941)     28638.0  Rx     18DA03F1  8  28 B1 02 49 D1 F8 D0 01 
   942)     28668.0  Rx     18DA03F1  8  29 80 47 10 BD 18 80 FF 
   943)     28678.0  Rx     18DA03F1  8  2A 1F 10 B5 04 48 D0 F8 
   944)     28688.0  Rx     18DA03F1  8  2B D4 01 18 B1 02 49 D1 
   945)     28698.0  Rx     18DA03F1  8  2C F8 D4 01 80 47 10 BD 
   946)     28708.0  Rx     18DA03F1  8  2D 18 80 FF 1F 10 B5 04 
   947)     28718.0  Rx     18DA03F1  8  2E 48 D0 F8 D8 01 18 B1 
   948)     28728.0  Rx     18DA03F1  8  2F 02 49 D1 F8 D8 01 80 
   949)     28738.0  Rx     18DA03F1  8  20 47 10 BD 18 80 FF 1F 
   950)     28768.0  Rx     18DA03F1  8  21 10 B5 04 48 D0 F8 DC 
   951)     28778.0  Rx     18DA03F1  8  22 01 18 B1 02 49 D1 F8 
   952)     28788.0  Rx     18DA03F1  8  23 DC 01 80 47 10 BD 18 
   953)     28798.0  Rx     18DA03F1  8  24 80 FF 1F 10 B5 04 48 
   954)     28808.0  Rx     18DA03F1  8  25 D0 F8 E0 01 18 B1 02 
   955)     28818.0  Rx     18DA03F1  8  26 49 D1 F8 E0 01 80 47 
   956)     28828.0  Rx     18DA03F1  8  27 10 BD 18 80 FF 1F 10 
   957)     28838.0  Rx     18DA03F1  8  28 B5 04 48 D0 F8 E4 01 
   958)     28868.0  Rx     18DA03F1  8  29 18 B1 02 49 D1 F8 E4 
   959)     28878.0  Rx     18DA03F1  8  2A 01 80 47 10 BD 18 80 
   960)     28888.0  Rx     18DA03F1  8  2B FF 1F 10 B5 04 48 D0 
   961)     28898.0  Rx     18DA03F1  8  2C F8 E8 01 18 B1 02 49 
   962)     28908.0  Rx     18DA03F1  8  2D D1 F8 E8 01 80 47 10 
   963)     28918.0  Rx     18DA03F1  8  2E BD 18 80 FF 1F 10 B5 
   964)     28928.0  Rx     18DA03F1  8  2F 04 48 D0 F8 EC 01 18 
   965)     28938.0  Rx     18DA03F1  8  20 B1 02 49 D1 F8 EC 01 
   966)     28968.0  Rx     18DA03F1  8  21 80 47 10 BD 18 80 FF 
   967)     28978.0  Rx     18DA03F1  8  22 1F 10 B5 04 48 D0 F8 
   968)     28988.0  Rx     18DA03F1  8  23 F0 01 18 B1 02 49 D1 
   969)     28998.0  Rx     18DA03F1  8  24 F8 F0 01 80 47 10 BD 
   970)     29042.1  Rx     18DA03F1  8  11 02 36 1B 18 80 FF 1F 
   971)     29059.0  Rx     18DA03F1  8  21 10 B5 04 48 D0 F8 F4 
   972)     29069.0  Rx     18DA03F1  8  22 01 18 B1 02 49 D1 F8 
   973)     29079.0  Rx     18DA03F1  8  23 F4 01 80 47 10 BD 18 
   974)     29089.0  Rx     18DA03F1  8  24 80 FF 1F 10 B5 04 48 
   975)     29099.0  Rx     18DA03F1  8  25 D0 F8 F8 01 18 B1 02 
   976)     29109.1  Rx     18DA03F1  8  26 49 D1 F8 F8 01 80 47 
   977)     29119.0  Rx     18DA03F1  8  27 10 BD 18 80 FF 1F 10 
   978)     29129.0  Rx     18DA03F1  8  28 B5 04 48 D0 F8 FC 01 
   979)     29159.0  Rx     18DA03F1  8  29 18 B1 02 49 D1 F8 FC 
   980)     29169.0  Rx     18DA03F1  8  2A 01 80 47 10 BD 18 80 
   981)     29179.0  Rx     18DA03F1  8  2B FF 1F 10 B5 AF F3 00 
   982)     29189.0  Rx     18DA03F1  8  2C 80 10 BD 10 B5 AF F3 
   983)     29199.0  Rx     18DA03F1  8  2D 00 80 10 BD 2D E9 F0 
   984)     29209.0  Rx     18DA03F1  8  2E 47 06 46 89 46 14 46 
   985)     29219.0  Rx     18DA03F1  8  2F 00 27 00 BF 4E B1 01 
   986)     29229.0  Rx     18DA03F1  8  20 2E 07 D0 02 2E 05 D0 
   987)     29259.0  Rx     18DA03F1  8  21 03 2E 03 D0 04 2E 01 
   988)     29269.0  Rx     18DA03F1  8  22 D0 05 2E 00 D1 03 E0 
   989)     29279.0  Rx     18DA03F1  8  23 AC 21 67 A0 FF F7 5F 
   990)     29289.0  Rx     18DA03F1  8  24 F8 00 BF 00 BF 20 78 
   991)     29299.0  Rx     18DA03F1  8  25 28 B1 20 78 01 28 02 
   992)     29309.0  Rx     18DA03F1  8  26 D0 20 78 02 28 00 D1 
   993)     29319.0  Rx     18DA03F1  8  27 03 E0 AE 21 60 A0 FF 
   994)     29329.0  Rx     18DA03F1  8  28 F7 50 F8 00 BF 00 BF 
   995)     29359.0  Rx     18DA03F1  8  29 60 79 28 B1 60 79 01 
   996)     29369.0  Rx     18DA03F1  8  2A 28 02 D0 60 79 02 28 
   997)     29379.0  Rx     18DA03F1  8  2B 00 D1 03 E0 AF 21 58 
   998)     29389.0  Rx     18DA03F1  8  2C A0 FF F7 41 F8 00 BF 
   999)     29399.0  Rx     18DA03F1  8  2D 00 BF A0 79 10 B1 A0 
  1000)     29409.0  Rx     18DA03F1  8  2E 79 01 28 00 D1 03 E0 
  1001)     29419.0  Rx     18DA03F1  8  2F B0 21 52 A0 FF F7 35 
  1002)     29429.0  Rx     18DA03F1  8  20 F8 00 BF 00 BF 60 78 
  1003)     29459.0  Rx     18DA03F1  8  21 10 B1 60 78 01 28 00 
  1004)     29469.0  Rx     18DA03F1  8  22 D1 03 E0 B1 21 4C A0 
  1005)     29479.0  Rx     18DA03F1  8  23 FF F7 29 F8 00 BF 00 
  1006)     29489.0  Rx     18DA03F1  8  24 BF A0 78 10 B1 A0 78 
  1007)     29533.1  Rx     18DA03F1  8  11 02 36 1C 01 28 00 D1 
  1008)     29549.0  Rx     18DA03F1  8  21 03 E0 B2 21 46 A0 FF 
  1009)     29559.0  Rx     18DA03F1  8  22 F7 1D F8 00 BF 00 BF 
  1010)     29569.0  Rx     18DA03F1  8  23 E0 78 10 B1 E0 78 01 
  1011)     29579.0  Rx     18DA03F1  8  24 28 00 D1 03 E0 B3 21 
  1012)     29589.0  Rx     18DA03F1  8  25 40 A0 FF F7 11 F8 00 
  1013)     29599.0  Rx     18DA03F1  8  26 BF 00 BF 20 79 10 B1 
  1014)     29609.0  Rx     18DA03F1  8  27 20 79 01 28 00 D1 03 
  1015)     29619.0  Rx     18DA03F1  8  28 E0 B4 21 3A A0 FF F7 
  1016)     29649.0  Rx     18DA03F1  8  29 05 F8 00 BF 00 BF E0 
  1017)     29659.0  Rx     18DA03F1  8  2A 79 10 B1 E0 79 01 28 
  1018)     29669.0  Rx     18DA03F1  8  2B 00 D1 03 E0 B5 21 34 
  1019)     29679.0  Rx     18DA03F1  8  2C A0 FE F7 F9 FF 00 BF 
  1020)     29689.0  Rx     18DA03F1  8  2D 00 F0 B4 F8 00 27 5A 
  1021)     29699.0  Rx     18DA03F1  8  2E E0 01 20 B8 40 00 EA 
  1022)     29709.0  Rx     18DA03F1  8  2F 09 00 78 B3 37 48 00 
  1023)     29719.0  Rx     18DA03F1  8  20 EB 86 10 00 EB 87 05 
  1024)     29749.0  Rx     18DA03F1  8  21 34 48 80 1C 00 EB 86 
  1025)     29759.0  Rx     18DA03F1  8  22 10 00 EB 87 08 61 78 
  1026)     29769.0  Rx     18DA03F1  8  23 28 88 61 F3 8E 30 28 
  1027)     29779.0  Rx     18DA03F1  8  24 80 A1 78 28 88 61 F3 
  1028)     29789.0  Rx     18DA03F1  8  25 0C 30 28 80 E1 78 28 
  1029)     29799.0  Rx     18DA03F1  8  26 88 61 F3 49 20 28 80 
  1030)     29809.0  Rx     18DA03F1  8  27 21 79 28 88 61 F3 86 
  1031)     29819.0  Rx     18DA03F1  8  28 10 28 80 A1 79 28 88 
  1032)     29849.0  Rx     18DA03F1  8  29 61 F3 82 00 28 80 61 
  1033)     29859.0  Rx     18DA03F1  8  2A 79 28 88 61 F3 05 10 
  1034)     29869.0  Rx     18DA03F1  8  2B 28 80 20 78 28 B1 01 
  1035)     29879.0  Rx     18DA03F1  8  2C 28 0C D0 02 28 1B D1 
  1036)     29889.0  Rx     18DA03F1  8  2D 13 E0 22 E0 28 88 20 
  1037)     29899.0  Rx     18DA03F1  8  2E F4 00 40 28 80 28 88 
  1038)     29909.0  Rx     18DA03F1  8  2F 20 F0 02 00 28 80 11 
  1039)     29919.0  Rx     18DA03F1  8  20 E0 28 88 20 F4 00 40 
  1040)     29949.0  Rx     18DA03F1  8  21 28 80 28 88 20 F0 02 
  1041)     29959.0  Rx     18DA03F1  8  22 00 80 1C 28 80 07 E0 
  1042)     29969.0  Rx     18DA03F1  8  23 28 88 20 F4 00 40 00 
  1043)     29979.0  Rx     18DA03F1  8  24 F5 00 40 28 80 00 E0 
  1044)     30021.1  Rx     18DA03F1  8  11 02 36 1D 00 BF 00 BF 
  1045)     30036.0  Rx     18DA03F1  8  21 E1 79 B8 F8 00 00 61 
  1046)     30046.0  Rx     18DA03F1  8  22 F3 08 20 A8 F8 00 00 
  1047)     30056.0  Rx     18DA03F1  8  23 78 1C C7 B2 10 2F A2 
  1048)     30066.0  Rx     18DA03F1  8  24 D3 00 F0 17 F8 00 20 
  1049)     30076.0  Rx     18DA03F1  8  25 BD E8 F0 87 2E 2E 5C 
  1050)     30086.0  Rx     18DA03F1  8  26 2E 2E 5C 64 72 69 76 
  1051)     30096.0  Rx     18DA03F1  8  27 65 72 5C 73 72 63 5C 
  1052)     30106.0  Rx     18DA03F1  8  28 68 63 33 32 66 34 36 
  1053)     30136.0  Rx     18DA03F1  8  29 30 5F 67 70 69 6F 2E 
  1054)     30146.0  Rx     18DA03F1  8  2A 63 00 00 00 00 00 3C 
  1055)     30156.0  Rx     18DA03F1  8  2B 05 40 4F F4 25 40 01 
  1056)     30166.0  Rx     18DA03F1  8  2C 49 08 80 70 47 00 00 
  1057)     30176.0  Rx     18DA03F1  8  2D FC 3B 05 40 70 B5 04 
  1058)     30186.0  Rx     18DA03F1  8  2E 46 0E 46 00 BF 4C B1 
  1059)     30196.0  Rx     18DA03F1  8  2F 01 2C 07 D0 02 2C 05 
  1060)     30206.0  Rx     18DA03F1  8  20 D0 03 2C 03 D0 04 2C 
  1061)     30236.0  Rx     18DA03F1  8  21 01 D0 05 2C 00 D1 04 
  1062)     30246.0  Rx     18DA03F1  8  22 E0 40 F2 26 21 06 A0 
  1063)     30256.0  Rx     18DA03F1  8  23 FE F7 61 FF 00 BF 0D 
  1064)     30266.0  Rx     18DA03F1  8  24 48 10 21 01 FB 04 05 
  1065)     30276.0  Rx     18DA03F1  8  25 28 88 30 43 28 80 00 
  1066)     30286.0  Rx     18DA03F1  8  26 20 70 BD 00 00 2E 2E 
  1067)     30296.0  Rx     18DA03F1  8  27 5C 2E 2E 5C 64 72 69 
  1068)     30306.0  Rx     18DA03F1  8  28 76 65 72 5C 73 72 63 
  1069)     30336.0  Rx     18DA03F1  8  29 5C 68 63 33 32 66 34 
  1070)     30346.0  Rx     18DA03F1  8  2A 36 30 5F 67 70 69 6F 
  1071)     30356.0  Rx     18DA03F1  8  2B 2E 63 00 00 00 00 0C 
  1072)     30366.0  Rx     18DA03F1  8  2C 38 05 40 4A F2 01 50 
  1073)     30376.0  Rx     18DA03F1  8  2D 01 49 08 80 70 47 00 
  1074)     30386.0  Rx     18DA03F1  8  2E 00 FC 3B 05 40 70 B5 
  1075)     30396.0  Rx     18DA03F1  8  2F 04 46 0D 46 00 BF 11 
  1076)     30406.0  Rx     18DA03F1  8  20 48 20 40 08 B9 04 B1 
  1077)     30436.0  Rx     18DA03F1  8  21 04 E0 4F F4 3C 71 0F 
  1078)     30446.0  Rx     18DA03F1  8  22 A0 FE F7 2C FF 00 BF 
  1079)     30456.0  Rx     18DA03F1  8  23 00 BF 0D B1 01 2D 00 
  1080)     30466.0  Rx     18DA03F1  8  24 D1 04 E0 40 F2 F1 21 
  1081)     30510.1  Rx     18DA03F1  8  11 02 36 1E 09 A0 FE F7 
  1082)     30527.0  Rx     18DA03F1  8  21 21 FF 00 BF 01 2D 05 
  1083)     30537.0  Rx     18DA03F1  8  22 D1 0E 48 80 68 A0 43 
  1084)     30547.0  Rx     18DA03F1  8  23 0D 49 88 60 04 E0 0B 
  1085)     30557.0  Rx     18DA03F1  8  24 48 80 68 20 43 0A 49 
  1086)     30567.0  Rx     18DA03F1  8  25 88 60 70 BD 00 78 F8 
  1087)     30577.0  Rx     18DA03F1  8  26 FF 2E 2E 5C 2E 2E 5C 
  1088)     30587.0  Rx     18DA03F1  8  27 64 72 69 76 65 72 5C 
  1089)     30597.0  Rx     18DA03F1  8  28 73 72 63 5C 68 63 33 
  1090)     30627.0  Rx     18DA03F1  8  29 32 66 34 36 30 5F 70 
  1091)     30637.0  Rx     18DA03F1  8  2A 77 63 2E 63 00 00 80 
  1092)     30647.0  Rx     18DA03F1  8  2B 04 40 10 B5 AF F3 00 
  1093)     30657.0  Rx     18DA03F1  8  2C 80 10 BD 10 B5 01 46 
  1094)     30667.0  Rx     18DA03F1  8  2D 10 4B 1B 68 C3 F3 00 
  1095)     30677.0  Rx     18DA03F1  8  2E 42 0E 4B 1B 68 23 F4 
  1096)     30687.0  Rx     18DA03F1  8  2F 80 33 0C 4C 23 60 00 
  1097)     30697.0  Rx     18DA03F1  8  20 BF 00 BF 00 BF BF F3 
  1098)     30727.0  Rx     18DA03F1  8  21 4F 8F 00 BF 00 BF 00 
  1099)     30737.0  Rx     18DA03F1  8  22 BF 08 68 00 BF 00 BF 
  1100)     30747.0  Rx     18DA03F1  8  23 00 BF BF F3 5F 8F 00 
  1101)     30757.0  Rx     18DA03F1  8  24 BF 00 BF 00 BF 23 46 
  1102)     30767.0  Rx     18DA03F1  8  25 1B 68 62 F3 10 43 23 
  1103)     30777.0  Rx     18DA03F1  8  26 60 10 BD 00 00 08 04 
  1104)     30787.0  Rx     18DA03F1  8  27 01 40 00 22 00 21 4A 
  1105)     30797.0  Rx     18DA03F1  8  28 F2 02 50 0F 4B 18 80 
  1106)     30827.0  Rx     18DA03F1  8  29 00 BF 49 1C 0E 48 00 
  1107)     30837.0  Rx     18DA03F1  8  2A 88 20 F4 00 40 00 F5 
  1108)     30847.0  Rx     18DA03F1  8  2B 00 40 0B 4B C0 3B A3 
  1109)     30857.0  Rx     18DA03F1  8  2C F8 C0 00 09 48 02 88 
  1110)     30867.0  Rx     18DA03F1  8  2D B1 F5 80 5F 01 D0 00 
  1111)     30877.0  Rx     18DA03F1  8  2E 2A ED D1 4F F4 25 40 
  1112)     30887.0  Rx     18DA03F1  8  2F 04 4B 18 80 B1 F5 80 
  1113)     30897.0  Rx     18DA03F1  8  20 5F 01 D3 09 20 70 47 
  1114)     30927.0  Rx     18DA03F1  8  21 00 20 FC E7 FE 43 05 
  1115)     30937.0  Rx     18DA03F1  8  22 40 C0 40 05 40 08 B5 
  1116)     30947.0  Rx     18DA03F1  8  23 01 46 00 20 00 90 00 
  1117)     30957.0  Rx     18DA03F1  8  24 22 09 B9 04 20 08 BD 
  1118)     31000.1  Rx     18DA03F1  8  11 02 36 1F 20 48 00 88 
  1119)     31016.0  Rx     18DA03F1  8  21 00 90 6A 46 10 88 C0 
  1120)     31026.0  Rx     18DA03F1  8  22 F3 80 30 08 70 10 88 
  1121)     31036.0  Rx     18DA03F1  8  23 C0 F3 40 30 48 70 10 
  1122)     31046.0  Rx     18DA03F1  8  24 88 C0 F3 00 30 88 70 
  1123)     31056.0  Rx     18DA03F1  8  25 10 88 C0 F3 C0 20 C8 
  1124)     31066.0  Rx     18DA03F1  8  26 70 10 88 C0 F3 80 20 
  1125)     31076.0  Rx     18DA03F1  8  27 08 71 10 88 C0 F3 40 
  1126)     31086.0  Rx     18DA03F1  8  28 20 48 71 10 88 C0 F3 
  1127)     31116.0  Rx     18DA03F1  8  29 00 20 88 71 10 88 C0 
  1128)     31126.0  Rx     18DA03F1  8  2A F3 C0 10 C8 71 10 88 
  1129)     31136.0  Rx     18DA03F1  8  2B C0 F3 80 10 08 72 10 
  1130)     31146.0  Rx     18DA03F1  8  2C 88 C0 F3 40 10 48 72 
  1131)     31156.0  Rx     18DA03F1  8  2D 10 88 C0 F3 00 10 88 
  1132)     31166.0  Rx     18DA03F1  8  2E 72 10 88 C0 F3 00 10 
  1133)     31176.0  Rx     18DA03F1  8  2F C8 72 10 88 C0 F3 80 
  1134)     31186.0  Rx     18DA03F1  8  20 00 08 73 10 88 C0 F3 
  1135)     31216.0  Rx     18DA03F1  8  21 40 00 48 73 10 88 00 
  1136)     31226.0  Rx     18DA03F1  8  22 F0 01 00 88 73 00 20 
  1137)     31236.0  Rx     18DA03F1  8  23 BC E7 C0 40 05 40 10 
  1138)     31246.0  Rx     18DA03F1  8  24 B5 AF F3 00 80 10 BD 
  1139)     31256.0  Rx     18DA03F1  8  25 00 20 40 F2 23 11 03 
  1140)     31266.0  Rx     18DA03F1  8  26 4A 11 60 43 F2 10 21 
  1141)     31276.0  Rx     18DA03F1  8  27 11 60 70 47 00 00 08 
  1142)     31286.0  Rx     18DA03F1  8  28 94 04 40 10 B5 AF F3 
  1143)     31316.0  Rx     18DA03F1  8  29 00 80 10 BD 1C B5 00 
  1144)     31326.0  Rx     18DA03F1  8  2A BF 00 20 00 90 01 90 
  1145)     31336.1  Rx     18DA03F1  8  2B 00 BF 8D F8 00 00 01 
  1146)     31346.0  Rx     18DA03F1  8  2C 20 8D F8 01 00 00 20 
  1147)     31356.0  Rx     18DA03F1  8  2D 8D F8 02 00 01 20 8D 
  1148)     31366.0  Rx     18DA03F1  8  2E F8 03 00 02 20 8D F8 
  1149)     31376.0  Rx     18DA03F1  8  2F 04 00 8D F8 05 00 01 
  1150)     31386.0  Rx     18DA03F1  8  20 20 8D F8 06 00 68 46 
  1151)     31416.0  Rx     18DA03F1  8  21 FE F7 5E FD 01 20 FE 
  1152)     31426.0  Rx     18DA03F1  8  22 F7 0F FC 01 20 FE F7 
  1153)     31436.0  Rx     18DA03F1  8  23 8A FC FE F7 DC FF 04 
  1154)     31446.0  Rx     18DA03F1  8  24 20 FE F7 29 FF FE F7 
  1155)     31490.1  Rx     18DA03F1  8  11 02 36 20 B3 FE 00 BF 
  1156)     31506.0  Rx     18DA03F1  8  21 00 20 FE F7 A3 FB 01 
  1157)     31516.0  Rx     18DA03F1  8  22 28 FA D1 00 20 FE F7 
  1158)     31526.0  Rx     18DA03F1  8  23 B6 FC 1C BD 00 00 70 
  1159)     31536.0  Rx     18DA03F1  8  24 B5 00 24 13 20 01 21 
  1160)     31546.0  Rx     18DA03F1  8  25 00 22 00 23 29 4D 2D 
  1161)     31556.0  Rx     18DA03F1  8  26 78 05 F0 07 04 06 2C 
  1162)     31566.0  Rx     18DA03F1  8  27 4A D2 DF E8 04 F0 03 
  1163)     31576.0  Rx     18DA03F1  8  28 07 0B 10 14 19 25 4D 
  1164)     31606.0  Rx     18DA03F1  8  29 25 4E 35 60 41 E0 25 
  1165)     31616.0  Rx     18DA03F1  8  2A 4D 23 4E 35 60 3D E0 
  1166)     31626.0  Rx     18DA03F1  8  2B 4F F4 00 45 21 4E 35 
  1167)     31636.0  Rx     18DA03F1  8  2C 60 38 E0 20 4D 1F 4E 
  1168)     31646.0  Rx     18DA03F1  8  2D 35 60 34 E0 4F F4 00 
  1169)     31656.0  Rx     18DA03F1  8  2E 45 1C 4E 35 60 2F E0 
  1170)     31666.0  Rx     18DA03F1  8  2F 19 4D DA 35 2D 68 C5 
  1171)     31676.0  Rx     18DA03F1  8  20 F3 C0 13 16 4D 26 3D 
  1172)     31706.0  Rx     18DA03F1  8  21 D5 F8 00 51 C5 F3 07 
  1173)     31716.0  Rx     18DA03F1  8  22 20 13 4D DA 35 2D 68 
  1174)     31726.0  Rx     18DA03F1  8  23 29 0F 11 4D 26 3D D5 
  1175)     31736.0  Rx     18DA03F1  8  24 F8 00 51 05 F0 1F 02 
  1176)     31746.0  Rx     18DA03F1  8  25 5B B9 55 1C 10 4E B6 
  1177)     31756.0  Rx     18DA03F1  8  26 FB F5 F5 46 1C 75 43 
  1178)     31766.0  Rx     18DA03F1  8  27 4E 1C B5 FB F6 F5 0B 
  1179)     31776.0  Rx     18DA03F1  8  28 4E 35 60 0C E0 01 2B 
  1180)     31806.0  Rx     18DA03F1  8  29 0A D1 55 1C 07 4E B6 
  1181)     31816.0  Rx     18DA03F1  8  2A FB F5 F5 46 1C 75 43 
  1182)     31826.0  Rx     18DA03F1  8  2B 4E 1C B5 FB F6 F5 04 
  1183)     31836.0  Rx     18DA03F1  8  2C 4E 35 60 00 BF 00 BF 
  1184)     31846.0  Rx     18DA03F1  8  2D 70 BD 00 00 26 40 05 
  1185)     31856.0  Rx     18DA03F1  8  2E 40 00 24 F4 00 00 80 
  1186)     31866.0  Rx     18DA03F1  8  2F FF 1F 00 12 7A 00 00 
  1187)     31876.0  Rx     18DA03F1  8  20 B5 FF F7 9B FF 00 BD 
  1188)     31906.0  Rx     18DA03F1  8  21 2D E9 F8 43 04 46 0E 
  1189)     31916.0  Rx     18DA03F1  8  22 46 15 46 4F F0 00 08 
  1190)     31926.0  Rx     18DA03F1  8  23 00 27 00 2D 70 D0 00 
  1191)     31936.0  Rx     18DA03F1  8  24 BF FE 48 84 42 02 D0 
  1192)     31980.1  Rx     18DA03F1  8  11 02 36 21 FD 48 84 42 
  1193)     31997.0  Rx     18DA03F1  8  21 00 D1 04 E0 4F F4 24 
  1194)     32007.0  Rx     18DA03F1  8  22 71 FB A0 FE F7 9B FD 
  1195)     32017.0  Rx     18DA03F1  8  23 00 BF 00 BF 0E B1 01 
  1196)     32027.0  Rx     18DA03F1  8  24 2E 00 D1 04 E0 40 F2 
  1197)     32037.0  Rx     18DA03F1  8  25 91 21 F6 A0 FE F7 90 
  1198)     32047.0  Rx     18DA03F1  8  26 FD 00 BF 00 BF 28 78 
  1199)     32057.0  Rx     18DA03F1  8  27 E8 B1 28 78 01 28 1A 
  1200)     32067.0  Rx     18DA03F1  8  28 D0 28 78 02 28 17 D0 
  1201)     32097.0  Rx     18DA03F1  8  29 28 78 03 28 14 D0 28 
  1202)     32107.0  Rx     18DA03F1  8  2A 78 04 28 11 D0 28 78 
  1203)     32117.0  Rx     18DA03F1  8  2B 05 28 0E D0 28 78 06 
  1204)     32127.1  Rx     18DA03F1  8  2C 28 0B D0 28 78 07 28 
  1205)     32137.0  Rx     18DA03F1  8  2D 08 D0 28 78 08 28 05 
  1206)     32147.0  Rx     18DA03F1  8  2E D0 28 78 09 28 02 D0 
  1207)     32157.0  Rx     18DA03F1  8  2F 28 78 0A 28 00 D1 04 
  1208)     32167.0  Rx     18DA03F1  8  20 E0 40 F2 92 21 E2 A0 
  1209)     32197.0  Rx     18DA03F1  8  21 FE F7 68 FD 00 BF 00 
  1210)     32207.0  Rx     18DA03F1  8  22 BF 68 78 10 B1 68 78 
  1211)     32217.0  Rx     18DA03F1  8  23 01 28 00 D1 04 E0 40 
  1212)     32227.0  Rx     18DA03F1  8  24 F2 93 21 DB A0 FE F7 
  1213)     32237.0  Rx     18DA03F1  8  25 5B FD 00 BF 00 BF A8 
  1214)     32247.0  Rx     18DA03F1  8  26 78 10 B1 A8 78 01 28 
  1215)     32257.0  Rx     18DA03F1  8  27 00 D1 04 E0 4F F4 25 
  1216)     32267.0  Rx     18DA03F1  8  28 71 D5 A0 FE F7 4E FD 
  1217)     32297.0  Rx     18DA03F1  8  29 00 BF 00 BF E8 78 10 
  1218)     32307.0  Rx     18DA03F1  8  2A B1 E8 78 01 28 00 D1 
  1219)     32317.0  Rx     18DA03F1  8  2B 04 E0 40 F2 95 21 CE 
  1220)     32327.0  Rx     18DA03F1  8  2C A0 FE F7 41 FD 00 BF 
  1221)     32337.0  Rx     18DA03F1  8  2D CA 48 84 42 0C D1 5E 
  1222)     32347.0  Rx     18DA03F1  8  2E B9 00 BF E8 78 01 28 
  1223)     32357.0  Rx     18DA03F1  8  2F 01 D1 05 E0 FC E2 40 
  1224)     32367.0  Rx     18DA03F1  8  20 F2 99 21 C6 A0 FE F7 
  1225)     32397.0  Rx     18DA03F1  8  21 31 FD 00 BF 20 69 00 
  1226)     32407.0  Rx     18DA03F1  8  22 99 60 F3 00 01 00 91 
  1227)     32417.0  Rx     18DA03F1  8  23 20 69 41 08 00 98 61 
  1228)     32427.0  Rx     18DA03F1  8  24 F3 41 00 00 90 20 69 
  1229)     32469.1  Rx     18DA03F1  8  11 02 36 22 81 08 00 98 
  1230)     32485.0  Rx     18DA03F1  8  21 61 F3 82 00 00 90 20 
  1231)     32495.0  Rx     18DA03F1  8  22 7C 8D F8 00 00 20 69 
  1232)     32505.0  Rx     18DA03F1  8  23 01 09 00 98 61 F3 07 
  1233)     32515.0  Rx     18DA03F1  8  24 10 00 90 20 69 01 0A 
  1234)     32525.0  Rx     18DA03F1  8  25 00 98 61 F3 08 20 00 
  1235)     32535.0  Rx     18DA03F1  8  26 90 20 69 41 0A 00 98 
  1236)     32545.0  Rx     18DA03F1  8  27 61 F3 49 20 00 90 20 
  1237)     32555.0  Rx     18DA03F1  8  28 69 81 0A 00 98 61 F3 
  1238)     32585.0  Rx     18DA03F1  8  29 8A 20 00 90 60 7C 8D 
  1239)     32595.0  Rx     18DA03F1  8  2A F8 01 00 20 69 01 0B 
  1240)     32605.0  Rx     18DA03F1  8  2B 00 98 61 F3 0C 30 00 
  1241)     32615.0  Rx     18DA03F1  8  2C 90 20 69 41 0B 00 98 
  1242)     32625.0  Rx     18DA03F1  8  2D 61 F3 4D 30 00 90 20 
  1243)     32635.0  Rx     18DA03F1  8  2E 69 81 0B 00 98 61 F3 
  1244)     32645.0  Rx     18DA03F1  8  2F 8E 30 00 90 20 69 C1 
  1245)     32655.0  Rx     18DA03F1  8  20 0B 00 98 61 F3 CF 30 
  1246)     32685.0  Rx     18DA03F1  8  21 00 90 20 69 01 0C 00 
  1247)     32695.0  Rx     18DA03F1  8  22 98 61 F3 10 40 00 90 
  1248)     32705.0  Rx     18DA03F1  8  23 20 69 41 0C 00 98 61 
  1249)     32715.0  Rx     18DA03F1  8  24 F3 51 40 00 90 20 69 
  1250)     32725.0  Rx     18DA03F1  8  25 81 0C 00 98 61 F3 92 
  1251)     32735.0  Rx     18DA03F1  8  26 40 00 90 A0 7C 8D F8 
  1252)     32745.0  Rx     18DA03F1  8  27 02 00 20 69 01 0D 00 
  1253)     32755.0  Rx     18DA03F1  8  28 98 61 F3 17 50 00 90 
  1254)     32785.0  Rx     18DA03F1  8  29 20 69 01 0E 00 98 61 
  1255)     32795.0  Rx     18DA03F1  8  2A F3 18 60 00 90 20 69 
  1256)     32805.0  Rx     18DA03F1  8  2B 41 0E 00 98 61 F3 59 
  1257)     32815.0  Rx     18DA03F1  8  2C 60 00 90 20 69 81 0E 
  1258)     32825.0  Rx     18DA03F1  8  2D 00 98 61 F3 9A 60 00 
  1259)     32835.0  Rx     18DA03F1  8  2E 90 E0 7C 8D F8 03 00 
  1260)     32845.0  Rx     18DA03F1  8  2F 20 69 01 0F 00 98 61 
  1261)     32855.0  Rx     18DA03F1  8  20 F3 1C 70 00 90 20 69 
  1262)     32885.0  Rx     18DA03F1  8  21 41 0F 00 98 61 F3 5D 
  1263)     32895.0  Rx     18DA03F1  8  22 70 00 90 20 69 81 0F 
  1264)     32905.0  Rx     18DA03F1  8  23 00 98 61 F3 9E 70 00 
  1265)     32915.0  Rx     18DA03F1  8  24 90 20 69 C1 0F 00 98 
  1266)     32958.1  Rx     18DA03F1  8  11 02 36 23 61 F3 DF 70 
  1267)     32975.0  Rx     18DA03F1  8  21 00 90 26 B9 00 98 6F 
  1268)     32985.0  Rx     18DA03F1  8  22 F3 0F 00 00 90 02 E0 
  1269)     32995.0  Rx     18DA03F1  8  23 00 98 80 B2 00 90 00 
  1270)     33005.0  Rx     18DA03F1  8  24 98 21 69 60 F3 00 01 
  1271)     33015.0  Rx     18DA03F1  8  25 21 61 00 98 41 08 20 
  1272)     33025.0  Rx     18DA03F1  8  26 69 61 F3 41 00 20 61 
  1273)     33035.0  Rx     18DA03F1  8  27 00 98 81 08 20 69 61 
  1274)     33045.0  Rx     18DA03F1  8  28 F3 82 00 20 61 9D F8 
  1275)     33075.0  Rx     18DA03F1  8  29 00 00 20 74 00 98 01 
  1276)     33085.0  Rx     18DA03F1  8  2A 09 20 69 61 F3 07 10 
  1277)     33095.0  Rx     18DA03F1  8  2B 20 61 00 98 01 0A 20 
  1278)     33105.0  Rx     18DA03F1  8  2C 69 61 F3 08 20 20 61 
  1279)     33115.0  Rx     18DA03F1  8  2D 00 98 41 0A 20 69 61 
  1280)     33125.0  Rx     18DA03F1  8  2E F3 49 20 20 61 00 98 
  1281)     33135.0  Rx     18DA03F1  8  2F 81 0A 20 69 61 F3 8A 
  1282)     33145.0  Rx     18DA03F1  8  20 20 20 61 9D F8 01 10 
  1283)     33175.0  Rx     18DA03F1  8  21 61 74 00 98 01 0B 20 
  1284)     33185.0  Rx     18DA03F1  8  22 69 61 F3 0C 30 20 61 
  1285)     33195.0  Rx     18DA03F1  8  23 00 98 41 0B 20 69 61 
  1286)     33205.0  Rx     18DA03F1  8  24 F3 4D 30 20 61 00 98 
  1287)     33215.0  Rx     18DA03F1  8  25 81 0B 20 69 61 F3 8E 
  1288)     33225.0  Rx     18DA03F1  8  26 30 20 61 00 98 C1 0B 
  1289)     33235.0  Rx     18DA03F1  8  27 20 69 61 F3 CF 30 20 
  1290)     33245.0  Rx     18DA03F1  8  28 61 00 98 01 0C 20 69 
  1291)     33275.0  Rx     18DA03F1  8  29 61 F3 10 40 20 61 00 
  1292)     33285.0  Rx     18DA03F1  8  2A 98 41 0C 20 69 61 F3 
  1293)     33295.0  Rx     18DA03F1  8  2B 51 40 20 61 00 98 81 
  1294)     33305.0  Rx     18DA03F1  8  2C 0C 20 69 61 F3 92 40 
  1295)     33315.0  Rx     18DA03F1  8  2D 20 61 9D F8 02 10 A1 
  1296)     33325.0  Rx     18DA03F1  8  2E 74 00 98 01 0D 20 69 
  1297)     33335.0  Rx     18DA03F1  8  2F 61 F3 17 50 20 61 00 
  1298)     33345.0  Rx     18DA03F1  8  20 98 01 0E 20 69 61 F3 
  1299)     33375.0  Rx     18DA03F1  8  21 18 60 20 61 00 98 41 
  1300)     33385.0  Rx     18DA03F1  8  22 0E 20 69 61 F3 59 60 
  1301)     33395.0  Rx     18DA03F1  8  23 20 61 00 98 81 0E 20 
  1302)     33405.0  Rx     18DA03F1  8  24 69 61 F3 9A 60 20 61 
  1303)     33454.1  Rx     18DA03F1  8  11 02 36 24 9D F8 03 10 
  1304)     33471.0  Rx     18DA03F1  8  21 E1 74 00 98 01 0F 20 
  1305)     33481.0  Rx     18DA03F1  8  22 69 61 F3 1C 70 20 61 
  1306)     33491.0  Rx     18DA03F1  8  23 00 98 41 0F 20 69 61 
  1307)     33501.0  Rx     18DA03F1  8  24 F3 5D 70 20 61 00 98 
  1308)     33511.0  Rx     18DA03F1  8  25 81 0F 20 69 61 F3 9E 
  1309)     33521.0  Rx     18DA03F1  8  26 70 20 61 00 98 C1 0F 
  1310)     33531.0  Rx     18DA03F1  8  27 20 69 61 F3 DF 70 20 
  1311)     33541.0  Rx     18DA03F1  8  28 61 01 22 31 46 20 46 
  1312)     33571.0  Rx     18DA03F1  8  29 FE F7 BC F8 07 E0 38 
  1313)     33581.0  Rx     18DA03F1  8  2A 46 7F 1C B0 F5 A0 4F 
  1314)     33591.0  Rx     18DA03F1  8  2B 02 D9 4F F0 09 08 03 
  1315)     33601.0  Rx     18DA03F1  8  2C E0 00 98 21 69 88 42 
  1316)     33611.0  Rx     18DA03F1  8  2D F3 D1 00 BF 16 B1 01 
  1317)     33621.0  Rx     18DA03F1  8  2E 2E 7E D1 E7 E0 E8 78 
  1318)     33631.0  Rx     18DA03F1  8  2F 10 B1 01 28 0C D1 05 
  1319)     33641.1  Rx     18DA03F1  8  20 E0 69 78 00 98 61 F3 
  1320)     33671.1  Rx     18DA03F1  8  21 49 20 00 90 06 E0 A9 
  1321)     33681.0  Rx     18DA03F1  8  22 78 00 98 61 F3 8A 20 
  1322)     33691.1  Rx     18DA03F1  8  23 00 90 00 E0 00 BF 00 
  1323)     33701.1  Rx     18DA03F1  8  24 BF 29 78 00 98 61 F3 
  1324)     33711.0  Rx     18DA03F1  8  25 07 10 00 90 00 98 21 
  1325)     33721.1  Rx     18DA03F1  8  26 69 60 F3 00 01 21 61 
  1326)     33731.1  Rx     18DA03F1  8  27 00 98 41 08 20 69 61 
  1327)     33741.1  Rx     18DA03F1  8  28 F3 41 00 20 61 00 98 
  1328)     33771.1  Rx     18DA03F1  8  29 81 08 20 69 61 F3 82 
  1329)     33781.1  Rx     18DA03F1  8  2A 00 20 61 9D F8 00 00 
  1330)     33791.1  Rx     18DA03F1  8  2B 20 74 00 98 01 09 20 
  1331)     33801.1  Rx     18DA03F1  8  2C 69 61 F3 07 10 20 61 
  1332)     33811.1  Rx     18DA03F1  8  2D 00 98 01 0A 20 69 61 
  1333)     33821.1  Rx     18DA03F1  8  2E F3 08 20 20 61 00 98 
  1334)     33831.1  Rx     18DA03F1  8  2F 41 0A 20 69 61 F3 49 
  1335)     33841.0  Rx     18DA03F1  8  20 20 20 61 00 98 81 0A 
  1336)     33871.0  Rx     18DA03F1  8  21 20 69 61 F3 8A 20 20 
  1337)     33881.0  Rx     18DA03F1  8  22 61 9D F8 01 10 61 74 
  1338)     33891.0  Rx     18DA03F1  8  23 15 E0 00 40 02 40 00 
  1339)     33901.0  Rx     18DA03F1  8  24 44 02 40 2E 2E 5C 2E 
  1340)     33973.1  Rx     18DA03F1  8  11 02 36 25 2E 5C 64 72 
  1341)     33990.0  Rx     18DA03F1  8  21 69 76 65 72 5C 73 72 
  1342)     34000.0  Rx     18DA03F1  8  22 63 5C 68 63 33 32 66 
  1343)     34010.0  Rx     18DA03F1  8  23 34 36 30 5F 74 69 6D 
  1344)     34020.0  Rx     18DA03F1  8  24 65 72 30 2E 63 00 00 
  1345)     34030.0  Rx     18DA03F1  8  25 00 98 01 0B 20 69 61 
  1346)     34040.0  Rx     18DA03F1  8  26 F3 0C 30 20 61 00 98 
  1347)     34050.0  Rx     18DA03F1  8  27 41 0B 20 69 61 F3 4D 
  1348)     34060.0  Rx     18DA03F1  8  28 30 20 61 00 98 81 0B 
  1349)     34090.0  Rx     18DA03F1  8  29 20 69 61 F3 8E 30 20 
  1350)     34100.0  Rx     18DA03F1  8  2A 61 00 98 C1 0B 20 69 
  1351)     34110.0  Rx     18DA03F1  8  2B 61 F3 CF 30 20 61 00 
  1352)     34120.0  Rx     18DA03F1  8  2C 98 01 0C 20 69 61 F3 
  1353)     34130.0  Rx     18DA03F1  8  2D 10 40 20 61 00 98 00 
  1354)     34140.0  Rx     18DA03F1  8  2E E0 37 E1 41 0C 20 69 
  1355)     34150.0  Rx     18DA03F1  8  2F 61 F3 51 40 20 61 00 
  1356)     34160.0  Rx     18DA03F1  8  20 98 81 0C 20 69 61 F3 
  1357)     34190.0  Rx     18DA03F1  8  21 92 40 20 61 9D F8 02 
  1358)     34200.0  Rx     18DA03F1  8  22 10 A1 74 00 98 01 0D 
  1359)     34210.0  Rx     18DA03F1  8  23 20 69 61 F3 17 50 20 
  1360)     34220.0  Rx     18DA03F1  8  24 61 00 98 01 0E 20 69 
  1361)     34230.0  Rx     18DA03F1  8  25 61 F3 18 60 20 61 00 
  1362)     34240.0  Rx     18DA03F1  8  26 98 41 0E 20 69 61 F3 
  1363)     34250.0  Rx     18DA03F1  8  27 59 60 20 61 00 98 81 
  1364)     34260.1  Rx     18DA03F1  8  28 0E 20 69 61 F3 9A 60 
  1365)     34290.1  Rx     18DA03F1  8  29 20 61 9D F8 03 10 E1 
  1366)     34300.0  Rx     18DA03F1  8  2A 74 00 98 01 0F 20 69 
  1367)     34310.1  Rx     18DA03F1  8  2B 61 F3 1C 70 20 61 00 
  1368)     34320.0  Rx     18DA03F1  8  2C 98 41 0F 20 69 61 F3 
  1369)     34330.0  Rx     18DA03F1  8  2D 5D 70 20 61 00 98 81 
  1370)     34340.1  Rx     18DA03F1  8  2E 0F 20 69 61 F3 9E 70 
  1371)     34350.1  Rx     18DA03F1  8  2F 20 61 00 98 C1 0F 20 
  1372)     34360.1  Rx     18DA03F1  8  20 69 61 F3 DF 70 20 61 
  1373)     34390.1  Rx     18DA03F1  8  21 01 22 31 46 20 46 FD 
  1374)     34400.1  Rx     18DA03F1  8  22 F7 E5 FF A8 88 A0 60 
  1375)     34410.1  Rx     18DA03F1  8  23 01 22 31 46 20 46 FD 
  1376)     34420.1  Rx     18DA03F1  8  24 F7 DE FF E9 78 20 69 
  1377)     34464.1  Rx     18DA03F1  8  11 02 36 26 61 F3 08 20 
  1378)     34481.0  Rx     18DA03F1  8  21 20 61 01 22 31 46 20 
  1379)     34491.0  Rx     18DA03F1  8  22 46 FD F7 D4 FF 00 27 
  1380)     34501.0  Rx     18DA03F1  8  23 07 E0 38 46 7F 1C B0 
  1381)     34511.0  Rx     18DA03F1  8  24 F5 A0 4F 02 D9 4F F0 
  1382)     34521.0  Rx     18DA03F1  8  25 09 08 05 E0 E8 78 21 
  1383)     34531.0  Rx     18DA03F1  8  26 69 C1 F3 00 21 88 42 
  1384)     34541.0  Rx     18DA03F1  8  27 F1 D1 00 BF CF E0 E8 
  1385)     34551.0  Rx     18DA03F1  8  28 78 10 B1 01 28 0C D1 
  1386)     34581.0  Rx     18DA03F1  8  29 05 E0 69 78 00 98 61 
  1387)     34591.0  Rx     18DA03F1  8  2A F3 59 60 00 90 06 E0 
  1388)     34601.0  Rx     18DA03F1  8  2B A9 78 00 98 61 F3 9A 
  1389)     34611.0  Rx     18DA03F1  8  2C 60 00 90 00 E0 00 BF 
  1390)     34621.0  Rx     18DA03F1  8  2D 00 BF 29 78 00 98 61 
  1391)     34631.0  Rx     18DA03F1  8  2E F3 17 50 00 90 00 98 
  1392)     34641.0  Rx     18DA03F1  8  2F 21 69 60 F3 00 01 21 
  1393)     34651.1  Rx     18DA03F1  8  20 61 00 98 41 08 20 69 
  1394)     34681.1  Rx     18DA03F1  8  21 61 F3 41 00 20 61 00 
  1395)     34691.0  Rx     18DA03F1  8  22 98 81 08 20 69 61 F3 
  1396)     34701.1  Rx     18DA03F1  8  23 82 00 20 61 9D F8 00 
  1397)     34711.0  Rx     18DA03F1  8  24 00 20 74 00 98 01 09 
  1398)     34721.0  Rx     18DA03F1  8  25 20 69 61 F3 07 10 20 
  1399)     34731.0  Rx     18DA03F1  8  26 61 00 98 01 0A 20 69 
  1400)     34741.1  Rx     18DA03F1  8  27 61 F3 08 20 20 61 00 
  1401)     34751.0  Rx     18DA03F1  8  28 98 41 0A 20 69 61 F3 
  1402)     34781.0  Rx     18DA03F1  8  29 49 20 20 61 00 98 81 
  1403)     34791.1  Rx     18DA03F1  8  2A 0A 20 69 61 F3 8A 20 
  1404)     34801.0  Rx     18DA03F1  8  2B 20 61 9D F8 01 10 61 
  1405)     34811.0  Rx     18DA03F1  8  2C 74 00 98 01 0B 20 69 
  1406)     34821.1  Rx     18DA03F1  8  2D 61 F3 0C 30 20 61 00 
  1407)     34831.0  Rx     18DA03F1  8  2E 98 41 0B 20 69 61 F3 
  1408)     34841.0  Rx     18DA03F1  8  2F 4D 30 20 61 00 98 81 
  1409)     34851.1  Rx     18DA03F1  8  20 0B 20 69 61 F3 8E 30 
  1410)     34881.1  Rx     18DA03F1  8  21 20 61 00 98 C1 0B 20 
  1411)     34891.0  Rx     18DA03F1  8  22 69 61 F3 CF 30 20 61 
  1412)     34901.1  Rx     18DA03F1  8  23 00 98 01 0C 20 69 61 
  1413)     34911.0  Rx     18DA03F1  8  24 F3 10 40 20 61 00 98 
  1414)     34954.2  Rx     18DA03F1  8  11 02 36 27 41 0C 20 69 
  1415)     34971.1  Rx     18DA03F1  8  21 61 F3 51 40 20 61 00 
  1416)     34981.1  Rx     18DA03F1  8  22 98 81 0C 20 69 61 F3 
  1417)     34991.1  Rx     18DA03F1  8  23 92 40 20 61 9D F8 02 
  1418)     35001.1  Rx     18DA03F1  8  24 10 A1 74 00 98 01 0D 
  1419)     35011.1  Rx     18DA03F1  8  25 20 69 61 F3 17 50 20 
  1420)     35021.1  Rx     18DA03F1  8  26 61 00 98 01 0E 20 69 
  1421)     35031.1  Rx     18DA03F1  8  27 61 F3 18 60 20 61 00 
  1422)     35041.0  Rx     18DA03F1  8  28 98 41 0E 20 69 61 F3 
  1423)     35071.0  Rx     18DA03F1  8  29 59 60 20 61 00 98 81 
  1424)     35081.0  Rx     18DA03F1  8  2A 0E 20 69 61 F3 9A 60 
  1425)     35091.0  Rx     18DA03F1  8  2B 20 61 9D F8 03 10 E1 
  1426)     35101.0  Rx     18DA03F1  8  2C 74 00 98 01 0F 20 69 
  1427)     35111.0  Rx     18DA03F1  8  2D 61 F3 1C 70 20 61 00 
  1428)     35121.0  Rx     18DA03F1  8  2E 98 41 0F 20 69 61 F3 
  1429)     35131.0  Rx     18DA03F1  8  2F 5D 70 20 61 00 98 81 
  1430)     35141.0  Rx     18DA03F1  8  20 0F 20 69 61 F3 9E 70 
  1431)     35171.0  Rx     18DA03F1  8  21 20 61 00 98 C1 0F 20 
  1432)     35181.0  Rx     18DA03F1  8  22 69 61 F3 DF 70 20 61 
  1433)     35191.0  Rx     18DA03F1  8  23 01 22 31 46 20 46 FD 
  1434)     35201.0  Rx     18DA03F1  8  24 F7 16 FF A8 88 E0 60 
  1435)     35211.0  Rx     18DA03F1  8  25 01 22 31 46 20 46 FD 
  1436)     35221.0  Rx     18DA03F1  8  26 F7 0F FF E9 78 20 69 
  1437)     35231.0  Rx     18DA03F1  8  27 61 F3 18 60 20 61 01 
  1438)     35241.0  Rx     18DA03F1  8  28 22 31 46 20 46 FD F7 
  1439)     35271.1  Rx     18DA03F1  8  29 05 FF 00 27 07 E0 38 
  1440)     35281.0  Rx     18DA03F1  8  2A 46 7F 1C B0 F5 A0 4F 
  1441)     35291.0  Rx     18DA03F1  8  2B 02 D9 4F F0 09 08 05 
  1442)     35301.1  Rx     18DA03F1  8  2C E0 E8 78 21 69 C1 F3 
  1443)     35311.0  Rx     18DA03F1  8  2D 00 61 88 42 F1 D1 00 
  1444)     35321.0  Rx     18DA03F1  8  2E BF 00 E0 00 BF 01 E0 
  1445)     35331.0  Rx     18DA03F1  8  2F 4F F0 04 08 40 46 BD 
  1446)     35341.0  Rx     18DA03F1  8  20 E8 F8 83 2D E9 F0 41 
  1447)     35371.0  Rx     18DA03F1  8  21 04 46 0D 46 00 27 00 
  1448)     35381.0  Rx     18DA03F1  8  22 26 00 BF 25 48 84 42 
  1449)     35391.0  Rx     18DA03F1  8  23 02 D0 24 48 84 42 00 
  1450)     35401.0  Rx     18DA03F1  8  24 D1 04 E0 4F F4 89 71 
  1451)     35445.1  Rx     18DA03F1  8  11 02 36 28 22 A0 FE F7 
  1452)     35462.0  Rx     18DA03F1  8  21 21 FA 00 BF 00 BF 0D 
  1453)     35472.0  Rx     18DA03F1  8  22 B1 01 2D 00 D1 04 E0 
  1454)     35482.0  Rx     18DA03F1  8  23 40 F2 13 11 1D A0 FE 
  1455)     35492.0  Rx     18DA03F1  8  24 F7 16 FA 00 BF B5 B9 
  1456)     35502.0  Rx     18DA03F1  8  25 60 69 20 F0 01 00 60 
  1457)     35512.0  Rx     18DA03F1  8  26 61 01 22 29 46 20 46 
  1458)     35522.0  Rx     18DA03F1  8  27 FD F7 C3 FE 06 E0 30 
  1459)     35532.0  Rx     18DA03F1  8  28 46 76 1C B0 F5 A0 4F 
  1460)     35562.0  Rx     18DA03F1  8  29 01 D9 09 27 04 E0 60 
  1461)     35572.0  Rx     18DA03F1  8  2A 69 00 F0 01 00 00 28 
  1462)     35582.0  Rx     18DA03F1  8  2B F3 D1 16 E0 60 69 20 
  1463)     35592.0  Rx     18DA03F1  8  2C F4 80 30 60 61 01 22 
  1464)     35602.0  Rx     18DA03F1  8  2D 29 46 20 46 FD F7 AC 
  1465)     35612.0  Rx     18DA03F1  8  2E FE 06 E0 30 46 76 1C 
  1466)     35622.0  Rx     18DA03F1  8  2F B0 F5 A0 4F 01 D9 09 
  1467)     35632.0  Rx     18DA03F1  8  20 27 04 E0 60 69 C0 F3 
  1468)     35662.0  Rx     18DA03F1  8  21 00 40 00 28 F3 D1 00 
  1469)     35672.0  Rx     18DA03F1  8  22 BF 38 46 BD E8 F0 81 
  1470)     35682.0  Rx     18DA03F1  8  23 00 00 00 40 02 40 00 
  1471)     35692.0  Rx     18DA03F1  8  24 44 02 40 2E 2E 5C 2E 
  1472)     35702.0  Rx     18DA03F1  8  25 2E 5C 64 72 69 76 65 
  1473)     35712.0  Rx     18DA03F1  8  26 72 5C 73 72 63 5C 68 
  1474)     35722.0  Rx     18DA03F1  8  27 63 33 32 66 34 36 30 
  1475)     35732.0  Rx     18DA03F1  8  28 5F 74 69 6D 65 72 30 
  1476)     35762.1  Rx     18DA03F1  8  29 2E 63 00 00 2D E9 F0 
  1477)     35772.1  Rx     18DA03F1  8  2A 41 04 46 0E 46 15 46 
  1478)     35782.1  Rx     18DA03F1  8  2B 4F F0 00 08 00 27 00 
  1479)     35792.0  Rx     18DA03F1  8  2C BF 2F 48 84 42 02 D0 
  1480)     35802.1  Rx     18DA03F1  8  2D 2E 48 84 42 00 D1 04 
  1481)     35812.0  Rx     18DA03F1  8  2E E0 40 F2 45 11 2C A0 
  1482)     35822.1  Rx     18DA03F1  8  2F FE F7 B7 F9 00 BF 00 
  1483)     35832.1  Rx     18DA03F1  8  20 BF 0E B1 01 2E 00 D1 
  1484)     35862.0  Rx     18DA03F1  8  21 04 E0 4F F4 A3 71 27 
  1485)     35872.0  Rx     18DA03F1  8  22 A0 FE F7 AC F9 00 BF 
  1486)     35882.0  Rx     18DA03F1  8  23 00 BF 0D B1 01 2D 00 
  1487)     35892.0  Rx     18DA03F1  8  24 D1 04 E0 40 F2 47 11 
  1488)     35936.1  Rx     18DA03F1  8  11 02 36 29 21 A0 FE F7 
  1489)     35953.0  Rx     18DA03F1  8  21 A1 F9 00 BF 16 B1 01 
  1490)     35963.0  Rx     18DA03F1  8  22 2E 32 D1 18 E0 20 69 
  1491)     35973.0  Rx     18DA03F1  8  23 65 F3 00 00 20 61 01 
  1492)     35983.0  Rx     18DA03F1  8  24 22 31 46 20 46 FD F7 
  1493)     35993.0  Rx     18DA03F1  8  25 4B FE 07 E0 38 46 7F 
  1494)     36003.0  Rx     18DA03F1  8  26 1C B0 F5 A0 4F 02 D9 
  1495)     36013.0  Rx     18DA03F1  8  27 4F F0 09 08 04 E0 20 
  1496)     36023.0  Rx     18DA03F1  8  28 69 00 F0 01 00 A8 42 
  1497)     36053.0  Rx     18DA03F1  8  29 F2 D1 00 BF 19 E0 20 
  1498)     36063.0  Rx     18DA03F1  8  2A 69 65 F3 10 40 20 61 
  1499)     36073.0  Rx     18DA03F1  8  2B 01 22 31 46 20 46 FD 
  1500)     36083.0  Rx     18DA03F1  8  2C F7 32 FE 07 E0 38 46 
  1501)     36093.0  Rx     18DA03F1  8  2D 7F 1C B0 F5 A0 4F 02 
  1502)     36103.0  Rx     18DA03F1  8  2E D9 4F F0 09 08 04 E0 
  1503)     36113.0  Rx     18DA03F1  8  2F 20 69 C0 F3 00 40 A8 
  1504)     36123.0  Rx     18DA03F1  8  20 42 F2 D1 00 BF 00 E0 
  1505)     36153.0  Rx     18DA03F1  8  21 00 BF 00 BF 40 46 BD 
  1506)     36163.0  Rx     18DA03F1  8  22 E8 F0 81 00 00 00 40 
  1507)     36173.0  Rx     18DA03F1  8  23 02 40 00 44 02 40 2E 
  1508)     36183.0  Rx     18DA03F1  8  24 2E 5C 2E 2E 5C 64 72 
